! Touchstone file from project 5p9G_rev2
! Exported from HFSS 2016.0.0
! Variables:
!  $Z_trans_w = 0.69mm
!  $_0402_w = 0.6096mm
!  $_50ohm_w = 1mm
!  $copper_t = 0.03556mm
!  $f = 5900000000
!  $lambda = 50.8122810169492mm
!  sub_h = 1.27mm
!  sub_l = 10mm
!  sub_w = 10mm
# GHZ S MA R 50.000000
! Modal data exported
! Port[1] = 1:1
1                0.996608584240304 -49.2612866333821 
! Gamma         !               0.144142760528838 51.118001080163  
! Port Impedance50               0                

1.1              0.996021390360182 -54.3812555079251 
! Gamma         !               0.15375594452049 56.2333224694287 
! Port Impedance50               0                

1.2              0.995314082528114 -59.5523834170071 
! Gamma         !               0.16349775177803 61.3504715879253 
! Port Impedance50               0                

1.3              0.994470116142359 -64.777602202112 
! Gamma         !               0.173296711522967 66.4697018637664 
! Port Impedance50               0                

1.4              0.993472435466438 -70.0593571056263 
! Gamma         !               0.18309901249159 71.5912672319532 
! Port Impedance50               0                

1.5              0.992303909857624 -75.3995517577824 
! Gamma         !               0.192865730592393 76.7154182066464 
! Port Impedance50               0                

1.6              0.990947805011756 -80.7994942761167 
! Gamma         !               0.202570090307111 81.842399618782  
! Port Impedance50               0                

1.7              0.98938829375381 -86.2598463396313 
! Gamma         !               0.212194959374237 86.972449504076  
! Port Impedance50               0                

1.8              0.987611003178232 -91.7805773191599 
! Gamma         !               0.2217306725792  92.1057987611226 
! Port Impedance50               0                

1.9              0.985603587727853 -97.3609257325494 
! Gamma         !               0.231173210969984 97.2426712997754 
! Port Impedance50               0                

2                0.983356311086679 -102.999370406794 
! Gamma         !               0.240522721098969 102.383284478375 
! Port Impedance50               0                

2.1              0.98086261380706 -108.693613728401 
! Gamma         !               0.249782337319363 107.527849689275 
! Port Impedance50               0                

2.2              0.978119638848686 -114.440579214015 
! Gamma         !               0.258957261880669 112.676572998315 
! Port Impedance50               0                

2.3              0.975128684240958 -120.236425312941 
! Gamma         !               0.268054057251489 117.82965577797  
! Port Impedance50               0                

2.4              0.97189555146253 -126.076576854026 
! Gamma         !               0.277080109015013 122.987295298149 
! Port Impedance50               0                

2.5              0.96843076031388 -131.955774882357 
! Gamma         !               0.28604322341967 128.149685255465 
! Port Impedance50               0                

2.6              0.964749606249135 -137.868144827418 
! Gamma         !               0.294951329791087 133.317016232895 
! Port Impedance50               0                

2.7              0.960872044195218 -143.807282054256 
! Gamma         !               0.303812263753304 138.4894760889   
! Port Impedance50               0                

2.8              0.956822393287013 -149.766352938911 
! Gamma         !               0.3126336122198  143.667250279325 
! Port Impedance50               0                

2.9              0.952628868775363 -155.738208753917 
! Gamma         !               0.321422605297768 148.850522117725 
! Port Impedance50               0                

3                0.948322959426703 -161.715508924277 
! Gamma         !               0.330186043634607 154.039472980815 
! Port Impedance50               0                

3.1              0.943938679715158 -167.690849684715 
! Gamma         !               0.338930252417022 159.23428246596  
! Port Impedance50               0                

3.2              0.939511734775569 -173.65689388285 
! Gamma         !               0.347661055324438 164.435128507394 
! Port Impedance50               0                

3.3              0.935078641481662 -179.606497653681 
! Gamma         !               0.356383763351288 169.642187457306 
! Port Impedance50               0                

3.4              0.930675850607578 174.467170065125 
! Gamma         !               0.36510317464705 174.855634137304 
! Port Impedance50               0                

3.5              0.926338912794317 168.570518729126 
! Gamma         !               0.373823582462478 180.075641865045 
! Port Impedance50               0                

3.6              0.922101725428548 162.709440982988 
! Gamma         !               0.38254878900343 185.302382460192 
! Port Impedance50               0                

3.7              0.917995889384062 156.88923316036  
! Gamma         !               0.391282123533858 190.536026233176 
! Port Impedance50               0                

3.8              0.914050194933684 151.114532753542 
! Gamma         !               0.40002646347861 195.776741959727 
! Port Impedance50               0                

3.9              0.910290246117042 145.389273292428 
! Gamma         !               0.408784257586821 201.024696843619 
! Port Impedance50               0                

4                0.906738223441308 139.716656313841 
! Gamma         !               0.417557550452052 206.280056469634 
! Port Impedance50               0                

4.1              0.903412776764442 134.099139454448 
! Gamma         !               0.426348007864412 211.542984748416 
! Port Impedance50               0                

4.2              0.900329034044651 128.538439189977 
! Gamma         !               0.435156942606427 216.813643854532 
! Port Impedance50               0                

4.3              0.897498707526458 123.035546382234 
! Gamma         !               0.443985340408709 222.092194158856 
! Port Impedance50               0                

4.4              0.894930276812589 117.590752581632 
! Gamma         !               0.452833885861402 227.378794156099 
! Port Impedance50               0                

4.5              0.892629227895873 112.203684954497 
! Gamma         !               0.461702988138582 232.673600388214 
! Port Impedance50               0                

4.6              0.89059832823876 106.873347741508 
! Gamma         !               0.470592806439879 237.976767364183 
! Port Impedance50               0                

4.7              0.888837919989456 101.598168282857 
! Gamma         !               0.479503275089594 243.28844747663  
! Port Impedance50               0                

4.8              0.887346216025432 96.3760458421883 
! Gamma         !               0.488434128261284 248.608790915566 
! Port Impedance50               0                

4.9              0.886119586379586 91.2044017014468 
! Gamma         !               0.497384924316876 253.937945579516 
! Port Impedance50               0                

5                0.885152825464618 86.0802292615147 
! Gamma         !               0.506355069765423 259.276056984201 
! Port Impedance50               0                

5.1              0.884439393176284 81.0001431513676 
! Gamma         !               0.51534384285867 264.623268168915 
! Port Impedance50               0                

5.2              0.883971625307304 75.9604266081662 
! Gamma         !               0.524350416849633 269.979719600662 
! Port Impedance50               0                

5.3              0.883740910682881 70.9570766325153 
! Gamma         !               0.533373882946915 275.34554907612  
! Port Impedance50               0                

5.4              0.883737834025738 65.9858466410455 
! Gamma         !               0.542413273002191 280.720891621459 
! Port Impedance50               0                

5.5              0.883952284797356 61.0422865293344 
! Gamma         !               0.551467581971475 286.105879390011 
! Port Impedance50               0                

5.6              0.88437353318864 56.1217802210923 
! Gamma         !               0.560535790192812 291.500641557793 
! Port Impedance50               0                

5.7              0.884990275105493 51.2195809152348 
! Gamma         !               0.569616885524152 296.905304216847 
! Port Impedance50               0                

5.8              0.88579064847576 46.3308443527053 
! Gamma         !               0.57870988538561 302.319990266391 
! Port Impedance50               0                

5.9              0.886762223556113 41.4506605119228 
! Gamma         !               0.587813858750156 307.74481930172  
! Port Impedance50               0                

6                0.887891970199273 36.5740842078069 
! Gamma         !               0.596927948126282 313.179907500825 
! Port Impedance50               0                

6.1              0.889166205306562 31.6961651164453 
! Gamma         !               0.606051391575292 318.625367508695 
! Port Impedance50               0                

6.2              0.890570523983649 26.8119777770154 
! Gamma         !               0.615183544804791 324.081308319241 
! Port Impedance50               0                

6.3              0.892089718276524 21.9166521351835 
! Gamma         !               0.624323903378681 329.547835154802 
! Port Impedance50               0                

6.4              0.893707687818347 17.0054051876058 
! Gamma         !               0.633472125082539 335.025049343192 
! Port Impedance50               0                

6.5              0.895407347284007 12.0735742641156 
! Gamma         !               0.642628052481802 340.513048192228 
! Port Impedance50               0                

6.6              0.897170536232217 7.11665244053217 
! Gamma         !               0.651791735708597 346.011924861711 
! Port Impedance50               0                

6.7              0.898977937703972 2.13032650772463 
! Gamma         !               0.660963455511484 351.521768232804 
! Port Impedance50               0                

6.8              0.900809012809351 -2.88948217203767 
! Gamma         !               0.670143746600732 357.042662774778 
! Port Impedance50               0                

6.9              0.902641959416984 -7.94657371632398 
! Gamma         !               0.679333421320153 362.574688409078 
! Port Impedance50               0                

7                0.904453703878062 -13.0444226372421 
! Gamma         !               0.688533593674847 368.117920370682 
! Port Impedance50               0                

7.1              0.906219935354707 -18.186127774512 
! Gamma         !               0.697745703742566 373.672429066716 
! Port Impedance50               0                

7.2              0.907915192634146 -23.3743596401335 
! Gamma         !               0.706971542494803 379.238279932304 
! Port Impedance50               0                

7.3              0.909513013120487 -28.6113058438984 
! Gamma         !               0.716213277052004 384.815533283619 
! Port Impedance50               0                

7.4              0.910986152812135 -33.8986155773351 
! Gamma         !               0.725473476395721 390.404244168123 
! Port Impedance50               0                

7.5              0.912306884301752 -39.2373444638263 
! Gamma         !               0.734755137558805 396.004462211973 
! Port Impedance50               0                

7.6              0.913447377010689 -44.6279014181972 
! Gamma         !               0.744061712313136 401.616231464587 
! Port Impedance50               0                

7.7              0.914380159887785 -50.0699994771479 
! Gamma         !               0.753397134372677 407.239590240352 
! Port Impedance50               0                

7.8              0.915078661665132 -55.5626128334786 
! Gamma         !               0.762765847127954 412.874570957488 
! Port Impedance50               0                

7.9              0.915517817621191 -61.1039424982864 
! Gamma         !               0.772172831926342 418.521199974044 
! Port Impedance50               0                

8                0.915674724988281 -66.6913930901757 
! Gamma         !               0.781623636910815 424.179497421061 
! Port Impedance50               0                

8.1              0.915529322189292 -72.3215631747564 
! Gamma         !               0.791124406427997 429.849477032896 
! Port Impedance50               0                

8.2              0.915065060712658 -77.9902513239121 
! Gamma         !               0.800681911014552 435.531145974725 
! Port Impedance50               0                

8.3              0.914269533475269 -83.6924796175804 
! Gamma         !               0.81030357796909 441.224504667256 
! Port Impedance50               0                

8.4              0.913135020845337 -89.4225356739256 
! Gamma         !               0.819997522514797 446.929546608681 
! Port Impedance50               0                

8.5              0.91165891585405 -95.1740334911748 
! Gamma         !               0.829772579556071 452.646258193894 
! Port Impedance50               0                

8.6              0.909843994005186 -100.939992463023 
! Gamma         !               0.839638336030342 458.374618531027 
! Port Impedance50               0                

8.7              0.907698500583882 -106.712932956634 
! Gamma         !               0.849605163854168 464.114599255345 
! Port Impedance50               0                

8.8              0.905236039069696 -112.484985899092 
! Gamma         !               0.859684253460485 469.86616434056  
! Port Impedance50               0                

8.9              0.902475257282521 -118.248012990513 
! Gamma         !               0.869887647921611 475.629269907636 
! Port Impedance50               0                

9                0.899439341936596 -123.993733528963 
! Gamma         !               0.880228277650234 481.403864031132 
! Port Impedance50               0                

