# GHz S MA R 50

1.000000000000000e+00  9.7718982804631616e-01  5.7925706664892004e+01
1.010000000000000e+00  9.7668819246491545e-01  5.8527545453188353e+01
1.020000000000000e+00  9.7618496556725287e-01  5.9130038102294293e+01
1.030000000000000e+00  9.7594685351576749e-01  5.9733376067991841e+01
1.040000000000000e+00  9.7584299013560494e-01  6.0337491139255228e+01
1.050000000000000e+00  9.7567036643721072e-01  6.0942174141033668e+01
1.060000000000000e+00  9.7516062261677461e-01  6.1546929464398708e+01
1.070000000000000e+00  9.7464919318602161e-01  6.2152354616612477e+01
1.080000000000000e+00  9.7413021408447220e-01  6.2759028740036818e+01
1.090000000000000e+00  9.7360636276957879e-01  6.3366687701466013e+01
1.100000000000000e+00  9.7308201484490930e-01  6.3974829573733508e+01
1.110000000000000e+00  9.7256324442892250e-01  6.4582593295001928e+01
1.120000000000000e+00  9.7204269079887740e-01  6.5191040826894650e+01
1.130000000000000e+00  9.7151385318063554e-01  6.5800806571972558e+01
1.140000000000000e+00  9.7097982942011107e-01  6.6411587223391052e+01
1.150000000000000e+00  9.7044541517962102e-01  6.7022915397208010e+01
1.160000000000000e+00  9.6991708670686705e-01  6.7634162485767121e+01
1.170000000000000e+00  9.6938687328763617e-01  6.8246105460236535e+01
1.180000000000000e+00  9.6884751727975005e-01  6.8859160926413566e+01
1.190000000000000e+00  9.6830261801706152e-01  6.9473133358890408e+01
1.200000000000000e+00  9.6775748326926836e-01  7.0087639255657450e+01
1.210000000000000e+00  9.6721909828893460e-01  7.0702008374370649e+01
1.220000000000000e+00  9.6667872504422747e-01  7.1317082898456860e+01
1.230000000000000e+00  9.6613633069281757e-01  7.1932867602645558e+01
1.240000000000000e+00  9.6559190269709705e-01  7.2549362268472109e+01
1.250000000000000e+00  9.6504305490896891e-01  7.3166711978788641e+01
1.260000000000000e+00  9.6448239637627320e-01  7.3785374599655881e+01
1.270000000000000e+00  9.6391921873648645e-01  7.4404785961146914e+01
1.280000000000000e+00  9.6307075544890364e-01  7.5024213697286044e+01
1.290000000000000e+00  9.6210111161036393e-01  7.5644059767161551e+01
1.300000000000000e+00  9.6121265655104093e-01  7.6264852142895364e+01
1.310000000000000e+00  9.6063937766624841e-01  7.6887234066556559e+01
1.320000000000000e+00  9.6006344695780943e-01  7.7510371246251069e+01
1.330000000000000e+00  9.5949462805993635e-01  7.8133049485205547e+01
1.340000000000000e+00  9.5892745851789252e-01  7.8755961774167858e+01
1.350000000000000e+00  9.5835803876495251e-01  7.9379592499756612e+01
1.360000000000000e+00  9.5778635991801242e-01  8.0003939477499188e+01
1.370000000000000e+00  9.5721238697072764e-01  8.0629006541202003e+01
1.380000000000000e+00  9.5662535763409273e-01  8.1255793432601990e+01
1.390000000000000e+00  9.5603139933395265e-01  8.1883721597556516e+01
1.400000000000000e+00  9.5543805234950474e-01  8.2511995669414986e+01
1.410000000000000e+00  9.5485410751996291e-01  8.3139579540041979e+01
1.420000000000000e+00  9.5426776404382185e-01  8.3767883486928156e+01
1.430000000000000e+00  9.5366722131770676e-01  8.4397984011145951e+01
1.440000000000000e+00  9.5305940227306107e-01  8.5029238616816755e+01
1.450000000000000e+00  9.5235542070489509e-01  8.5660854543162330e+01
1.460000000000000e+00  9.5134247484857581e-01  8.6291901915392785e+01
1.470000000000000e+00  9.5032684192441252e-01  8.6923676455151835e+01
1.480000000000000e+00  9.4961557100804772e-01  8.7555996973607108e+01
1.490000000000000e+00  9.4901103556873956e-01  8.8188970421188117e+01
1.500000000000000e+00  9.4840395262755484e-01  8.8822657642727037e+01
1.510000000000000e+00  9.4779431400680048e-01  8.9457055134081742e+01
1.520000000000000e+00  9.4718208587918129e-01  9.0092165102374082e+01
1.530000000000000e+00  9.4655313753974701e-01  9.0728934387009417e+01
1.540000000000000e+00  9.4591623000892799e-01  9.1366773350064548e+01
1.550000000000000e+00  9.4517673142789216e-01  9.2005000576781441e+01
1.560000000000000e+00  9.4413623572485295e-01  9.2642870162566254e+01
1.570000000000000e+00  9.4309292336155703e-01  9.3281455458701927e+01
1.580000000000000e+00  9.4236133915498521e-01  9.3920207922373919e+01
1.590000000000000e+00  9.4172953927076775e-01  9.4559484217013676e+01
1.600000000000000e+00  9.4108958571698531e-01  9.5199935276683888e+01
1.610000000000000e+00  9.4043091250524213e-01  9.5842477690663856e+01
1.620000000000000e+00  9.3976882072413892e-01  9.6485758145056579e+01
1.630000000000000e+00  9.3880199622863358e-01  9.7128578503217767e+01
1.640000000000000e+00  9.3773837452711284e-01  9.7771731881600459e+01
1.650000000000000e+00  9.3678314269482310e-01  9.8415377875381537e+01
1.660000000000000e+00  9.3613102596594489e-01  9.9059144108965043e+01
1.670000000000000e+00  9.3547606442505493e-01  9.9703591417381745e+01
1.680000000000000e+00  9.3481842093719303e-01  1.0034840462939339e+02
1.690000000000000e+00  9.3415796190905964e-01  1.0099380032200155e+02
1.700000000000000e+00  9.3337971528176011e-01  1.0163996705272139e+02
1.710000000000000e+00  9.3229561292255647e-01  1.0228707135800377e+02
1.720000000000000e+00  9.3120856590489010e-01  1.0293485394072690e+02
1.730000000000000e+00  9.3042445749915792e-01  1.0358466751809294e+02
1.740000000000000e+00  9.2972344418955299e-01  1.0423556596871879e+02
1.750000000000000e+00  9.2890779687759784e-01  1.0488666466146654e+02
1.760000000000000e+00  9.2780823829670311e-01  1.0553717363869018e+02
1.770000000000000e+00  9.2670571521663869e-01  1.0618834360178396e+02
1.780000000000000e+00  9.2592913503983065e-01  1.0683917175966242e+02
1.790000000000000e+00  9.2523831880086371e-01  1.0749037066019739e+02
1.800000000000000e+00  9.2442277334379686e-01  1.0814245780887475e+02
1.810000000000000e+00  9.2330867375914705e-01  1.0879580100455588e+02
1.820000000000000e+00  9.2219161199654276e-01  1.0944978514799880e+02
1.830000000000000e+00  9.2140376896487886e-01  1.1010370243974823e+02
1.840000000000000e+00  9.2069813979445236e-01  1.1075805757717200e+02
1.850000000000000e+00  9.1986418051612706e-01  1.1141303890073739e+02
1.860000000000000e+00  9.1873488018771343e-01  1.1206867025003891e+02
1.870000000000000e+00  9.1760261644856900e-01  1.1272491883862706e+02
1.880000000000000e+00  9.1680323897012150e-01  1.1338138344894224e+02
1.890000000000000e+00  9.1608258016474631e-01  1.1403834493250123e+02
1.900000000000000e+00  9.1522030471983051e-01  1.1469682325468163e+02
1.910000000000000e+00  9.1404363331364280e-01  1.1535801217966494e+02
1.920000000000000e+00  9.1286315969366172e-01  1.1601984138456444e+02
1.930000000000000e+00  9.1204497817572805e-01  1.1667943477679643e+02
1.940000000000000e+00  9.1130812412785123e-01  1.1733893607905088e+02
1.950000000000000e+00  9.1043620005577652e-01  1.1799903931140855e+02
1.960000000000000e+00  9.0927655118356321e-01  1.1865980024908671e+02
1.970000000000000e+00  9.0811399144976890e-01  1.1932112489146459e+02
1.980000000000000e+00  9.0729020538181893e-01  1.1998251941321993e+02
1.990000000000000e+00  9.0653792834906566e-01  1.2064434265040848e+02
2.000000000000000e+00  9.0564739778703607e-01  1.2130689764862254e+02
2.010000000000000e+00  9.0447323060440210e-01  1.2197041064912428e+02
2.020000000000000e+00  9.0329620314365333e-01  1.2263445662252138e+02
2.030000000000000e+00  9.0246092864049254e-01  1.2329813482718687e+02
2.040000000000000e+00  9.0169355359994308e-01  1.2396213133100733e+02
2.050000000000000e+00  9.0078463264898945e-01  1.2462670606605808e+02
2.060000000000000e+00  8.9959587591145684e-01  1.2529194937478510e+02
2.070000000000000e+00  8.9840431243070140e-01  1.2595769222290518e+02
2.080000000000000e+00  8.9720995719241148e-01  1.2662392761970405e+02
2.090000000000000e+00  8.9601282552538641e-01  1.2729064847089444e+02
2.100000000000000e+00  8.9495473529304115e-01  1.2795760759805358e+02
2.110000000000000e+00  8.9416686424935521e-01  1.2862456224360196e+02
2.120000000000000e+00  8.9337591762983604e-01  1.2929196070837116e+02
2.130000000000000e+00  8.9223143391106519e-01  1.2996006437719191e+02
2.140000000000000e+00  8.9102032134047837e-01  1.3062866423102489e+02
2.150000000000000e+00  8.8980645221713239e-01  1.3129755473655433e+02
2.160000000000000e+00  8.8858978409087208e-01  1.3196659919000604e+02
2.170000000000000e+00  8.8737045405806081e-01  1.3263606868940155e+02
2.180000000000000e+00  8.8650196476369059e-01  1.3330530125388711e+02
2.190000000000000e+00  8.8569079957630037e-01  1.3397481210399218e+02
2.200000000000000e+00  8.8474508774159244e-01  1.3464385090579219e+02
2.210000000000000e+00  8.8356178391629203e-01  1.3531172089135976e+02
2.220000000000000e+00  8.8237689432686917e-01  1.3597993232000400e+02
2.230000000000000e+00  8.8114961287063198e-01  1.3665091911435459e+02
2.240000000000000e+00  8.7991336680430676e-01  1.3732265878832564e+02
2.250000000000000e+00  8.7882571645465246e-01  1.3799429126870331e+02
2.260000000000000e+00  8.7799619699871101e-01  1.3866545518058606e+02
2.270000000000000e+00  8.7716372007753363e-01  1.3933693670872941e+02
2.280000000000000e+00  8.7597027177770281e-01  1.4000950131335193e+02
2.290000000000000e+00  8.7472126711393916e-01  1.4068250039165818e+02
2.300000000000000e+00  8.7346988931231839e-01  1.4135581102327089e+02
2.310000000000000e+00  8.7221616868338714e-01  1.4202942378537702e+02
2.320000000000000e+00  8.7096013598562794e-01  1.4270332920771699e+02
2.330000000000000e+00  8.6970178792513875e-01  1.4337678166236651e+02
2.340000000000000e+00  8.6844118197604747e-01  1.4405040753473025e+02
2.350000000000000e+00  8.6733538210631778e-01  1.4472410078913026e+02
2.360000000000000e+00  8.6647962163387604e-01  1.4539771551383944e+02
2.370000000000000e+00  8.6562108628817258e-01  1.4607155269294620e+02
2.380000000000000e+00  8.6444639882052932e-01  1.4674257583129665e+02
2.390000000000000e+00  8.6323085448806181e-01  1.4741340403697745e+02
2.400000000000000e+00  8.6199217184564203e-01  1.4808581685437971e+02
2.410000000000000e+00  8.6071739228035582e-01  1.4876060887218367e+02
2.420000000000000e+00  8.5944060296942404e-01  1.4943559764585822e+02
2.430000000000000e+00  8.5816252539641935e-01  1.5011082871223556e+02
2.440000000000000e+00  8.5688259385097976e-01  1.5078624410763135e+02
2.450000000000000e+00  8.5560049217570355e-01  1.5146164408833869e+02
2.460000000000000e+00  8.5431611020420006e-01  1.5213692624864396e+02
2.470000000000000e+00  8.5302987998066293e-01  1.5281235426248932e+02
2.480000000000000e+00  8.5216377809955901e-01  1.5348354302115854e+02
2.490000000000000e+00  8.5134096270355275e-01  1.5415433841350097e+02
2.500000000000000e+00  8.5032615974501724e-01  1.5482702350446183e+02
2.510000000000000e+00  8.4903351574404606e-01  1.5550245163518275e+02
2.520000000000000e+00  8.4773918325283981e-01  1.5617797296360231e+02
2.530000000000000e+00  8.4644373961324881e-01  1.5685324808469576e+02
2.540000000000000e+00  8.4514673509822857e-01  1.5752856494501793e+02
2.550000000000000e+00  8.4384817114207122e-01  1.5820394215951052e+02
2.560000000000000e+00  8.4254809026533262e-01  1.5887936779375588e+02
2.570000000000000e+00  8.4124650207038476e-01  1.5955483315765571e+02
2.580000000000000e+00  8.4000473395609121e-01  1.6022631555849941e+02
2.590000000000000e+00  8.3876790552108105e-01  1.6089743877694235e+02
2.600000000000000e+00  8.3750212502150556e-01  1.6157023568951610e+02
2.610000000000000e+00  8.3619647919412177e-01  1.6224531889243727e+02
2.620000000000000e+00  8.3488951163795300e-01  1.6292038637075839e+02
2.630000000000000e+00  8.3358144979453541e-01  1.6359506340667730e+02
2.640000000000000e+00  8.3227215479128080e-01  1.6426967516364681e+02
2.650000000000000e+00  8.3116463319507083e-01  1.6494188780295542e+02
2.660000000000000e+00  8.3032159513608450e-01  1.6561092708316744e+02
2.670000000000000e+00  8.2947766379228305e-01  1.6627983950475306e+02
2.680000000000000e+00  8.2819347683933597e-01  1.6695340726730402e+02
2.690000000000000e+00  8.2687893524389844e-01  1.6762719808317155e+02
2.700000000000000e+00  8.2559592594278475e-01  1.6829887379445159e+02
2.710000000000000e+00  8.2435393755120345e-01  1.6896787247004880e+02
2.720000000000000e+00  8.2311218218440008e-01  1.6963671351681083e+02
2.730000000000000e+00  8.2179949571755029e-01  1.7030936164326360e+02
2.740000000000000e+00  8.2048188567555047e-01  1.7098208406897123e+02
2.750000000000000e+00  8.1919815655138595e-01  1.7165258748575584e+02
2.760000000000000e+00  8.1795693259999869e-01  1.7232038582883303e+02
2.770000000000000e+00  8.1671615248422702e-01  1.7298797141553518e+02
2.780000000000000e+00  8.1540077304716030e-01  1.7365935610988504e+02
2.790000000000000e+00  8.1408113758189105e-01  1.7433072178729356e+02
2.800000000000000e+00  8.1276068173934657e-01  1.7500167299604593e+02
2.810000000000000e+00  8.1143940760378352e-01  1.7567216311344654e+02
2.820000000000000e+00  8.1011756428595050e-01  1.7634240518136855e+02
2.830000000000000e+00  8.0887465476849429e-01  1.7700795084250026e+02
2.840000000000000e+00  8.0763554866012055e-01  1.7767303253825952e+02
2.850000000000000e+00  8.0635847857358012e-01  1.7833981808452705e+02
2.860000000000000e+00  8.0503706290508648e-01  1.7900859734331056e+02
2.870000000000000e+00  8.0371527879609905e-01  1.7967707013516360e+02
2.880000000000000e+00  8.0247558318460066e-01 -1.7965898434355356e+02
2.890000000000000e+00  8.0123928426731783e-01 -1.7899551543847750e+02
2.900000000000000e+00  8.0000385969699161e-01 -1.7833277928202006e+02
2.910000000000000e+00  7.9876933520133198e-01 -1.7767082463339111e+02
2.920000000000000e+00  7.9753586313283031e-01 -1.7700925263272421e+02
2.930000000000000e+00  7.9621798721270787e-01 -1.7634374246087035e+02
2.940000000000000e+00  7.9489821253195247e-01 -1.7567852926860817e+02
2.950000000000000e+00  7.9362146134749989e-01 -1.7501583912370674e+02
2.960000000000000e+00  7.9239166487020551e-01 -1.7435584209119062e+02
2.970000000000000e+00  7.9116312393562527e-01 -1.7369628546832479e+02
2.980000000000000e+00  7.8984566070954776e-01 -1.7303323451684051e+02
2.990000000000000e+00  7.8852715575113652e-01 -1.7237058398621159e+02
3.000000000000000e+00  7.8725451291702819e-01 -1.7171071974948066e+02
3.010000000000000e+00  7.8603023959495133e-01 -1.7105373875550330e+02
3.020000000000000e+00  7.8480741457731573e-01 -1.7039725290757124e+02
3.030000000000000e+00  7.8358603423581985e-01 -1.6974126991453306e+02
3.040000000000000e+00  7.8236617982577161e-01 -1.6908580512938147e+02
3.050000000000000e+00  7.8110006807100918e-01 -1.6842885419711135e+02
3.060000000000000e+00  7.7978680260116284e-01 -1.6777042208006918e+02
3.070000000000000e+00  7.7847433939580479e-01 -1.6711255332456599e+02
3.080000000000000e+00  7.7725966871959318e-01 -1.6645962094219959e+02
3.090000000000000e+00  7.7604671286852667e-01 -1.6580726290122468e+02
3.100000000000000e+00  7.7483555635688861e-01 -1.6515566298676617e+02
3.110000000000000e+00  7.7362623305414691e-01 -1.6450482529456352e+02
3.120000000000000e+00  7.7241748508607289e-01 -1.6385454324094445e+02
3.130000000000000e+00  7.7111127944521485e-01 -1.6320087733834538e+02
3.140000000000000e+00  7.6980572468124775e-01 -1.6254783738148657e+02
3.150000000000000e+00  7.6836300524629231e-01 -1.6189660760473402e+02
3.160000000000000e+00  7.6679399872604670e-01 -1.6124709865169120e+02
3.170000000000000e+00  7.6523594962497443e-01 -1.6059826967043736e+02
3.180000000000000e+00  7.6404056636721096e-01 -1.5995254647363038e+02
3.190000000000000e+00  7.6284726277634807e-01 -1.5930750455975337e+02
3.200000000000000e+00  7.6160127460666160e-01 -1.5866081378158324e+02
3.210000000000000e+00  7.6030691001641870e-01 -1.5801271071386731e+02
3.220000000000000e+00  7.5901658134321781e-01 -1.5736546640947282e+02
3.230000000000000e+00  7.5783063426750386e-01 -1.5672360223650404e+02
3.240000000000000e+00  7.5664693995841215e-01 -1.5608247292019865e+02
3.250000000000000e+00  7.5546527449473244e-01 -1.5544230182822531e+02
3.260000000000000e+00  7.5428570224942193e-01 -1.5480307247373113e+02
3.270000000000000e+00  7.5310850379126248e-01 -1.5416460646159570e+02
3.280000000000000e+00  7.5193422373542584e-01 -1.5352684128235211e+02
3.290000000000000e+00  7.5076236388494155e-01 -1.5288986229118711e+02
3.300000000000000e+00  7.4959273787421699e-01 -1.5225389841290499e+02
3.310000000000000e+00  7.4842541094066273e-01 -1.5161892576846446e+02
3.320000000000000e+00  7.4725551943484558e-01 -1.5098457913136275e+02
3.330000000000000e+00  7.4598164157375457e-01 -1.5034709052494389e+02
3.340000000000000e+00  7.4470911292585396e-01 -1.4971045013502606e+02
3.350000000000000e+00  7.4350009078636081e-01 -1.4907712464733771e+02
3.360000000000000e+00  7.4234426735531456e-01 -1.4844666774412701e+02
3.370000000000000e+00  7.4117197108175081e-01 -1.4781695715771355e+02
3.380000000000000e+00  7.3966887504193612e-01 -1.4718599889532632e+02
3.390000000000000e+00  7.3816987731053518e-01 -1.4655589306151285e+02
3.400000000000000e+00  7.3687152326004390e-01 -1.4592804787896856e+02
3.410000000000000e+00  7.3573174431222599e-01 -1.4530220528383956e+02
3.420000000000000e+00  7.3459477188120725e-01 -1.4467730048317381e+02
3.430000000000000e+00  7.3346022812439959e-01 -1.4405368686322436e+02
3.440000000000000e+00  7.3232858100149756e-01 -1.4343100491003838e+02
3.450000000000000e+00  7.3120019040869766e-01 -1.4280921388297227e+02
3.460000000000000e+00  7.3007500789499824e-01 -1.4218833399851817e+02
3.470000000000000e+00  7.2895281411405399e-01 -1.4156843375318843e+02
3.480000000000000e+00  7.2783365345859574e-01 -1.4094977311872006e+02
3.490000000000000e+00  7.2671753681130813e-01 -1.4033208749344931e+02
3.500000000000000e+00  7.2560422221504306e-01 -1.3971560979088525e+02
3.510000000000000e+00  7.2449381024289450e-01 -1.3910029000604513e+02
3.520000000000000e+00  7.2335931140580512e-01 -1.3848578529707157e+02
3.530000000000000e+00  7.2191222395158150e-01 -1.3787010709907170e+02
3.540000000000000e+00  7.2046968479961015e-01 -1.3725541836956907e+02
3.550000000000000e+00  7.1923163578219507e-01 -1.3664301512801450e+02
3.560000000000000e+00  7.1813993170544821e-01 -1.3603255995778025e+02
3.570000000000000e+00  7.1705142065443828e-01 -1.3542321528819360e+02
3.580000000000000e+00  7.1596533784971805e-01 -1.3481562375131497e+02
3.590000000000000e+00  7.1488258995298215e-01 -1.3420909026955414e+02
3.600000000000000e+00  7.1380353151865128e-01 -1.3360356335829408e+02
3.610000000000000e+00  7.1272808795792308e-01 -1.3299906865048041e+02
3.620000000000000e+00  7.1165601399159362e-01 -1.3239569178726799e+02
3.630000000000000e+00  7.1058691376754668e-01 -1.3179374683127855e+02
3.640000000000000e+00  7.0952129288726995e-01 -1.3119289860089202e+02
3.650000000000000e+00  7.0825819262038903e-01 -1.3059164177119703e+02
3.660000000000000e+00  7.0686570198344711e-01 -1.2999046743542192e+02
3.670000000000000e+00  7.0551292947367461e-01 -1.2939067063641383e+02
3.680000000000000e+00  7.0446371608903124e-01 -1.2879442284700318e+02
3.690000000000000e+00  7.0341811668308396e-01 -1.2819930689011682e+02
3.700000000000000e+00  7.0237613536953547e-01 -1.2760532856614647e+02
3.710000000000000e+00  7.0133781143683982e-01 -1.2701249598355662e+02
3.720000000000000e+00  7.0030318949722137e-01 -1.2642084709761194e+02
3.730000000000000e+00  6.9927228059698898e-01 -1.2583059049638184e+02
3.740000000000000e+00  6.9824512889493606e-01 -1.2524149969733186e+02
3.750000000000000e+00  6.9722148988012056e-01 -1.2465381451011201e+02
3.760000000000000e+00  6.9620149795243080e-01 -1.2406745284556528e+02
3.770000000000000e+00  6.9514584009049196e-01 -1.2348195644268172e+02
3.780000000000000e+00  6.9380718982657841e-01 -1.2289530912196726e+02
3.790000000000000e+00  6.9247373036591375e-01 -1.2230983888859278e+02
3.800000000000000e+00  6.9134895504243443e-01 -1.2172731375334371e+02
3.810000000000000e+00  6.9035045396497230e-01 -1.2114704981268083e+02
3.820000000000000e+00  6.8937386763809583e-01 -1.2056848047941766e+02
3.830000000000000e+00  6.8852269462285109e-01 -1.1999432547858711e+02
3.840000000000000e+00  6.8767649945139786e-01 -1.1942131761309403e+02
