! Created Fri Feb 16 14:02:22 2018
# hz S ma R 50
! 2 Port Network Data from SP2.SP block
! freq  magS11  angS11  magS21  angS21  magS12  angS12  magS22  angS22  
!     
             1e+09       0.977189828        -57.9257067        0.201826657         44.4288374        0.201826657         44.4288374         0.97781102        -33.0789297
          1.01e+09       0.976688192        -58.5275455        0.203689962         43.9575666        0.203689962         43.9575666        0.977307698        -33.4179856
          1.02e+09       0.976184966        -59.1300381        0.205556081         43.4858285        0.205556081         43.4858285        0.976802549        -33.7573268
          1.03e+09       0.975946854        -59.7333761        0.207704556         43.0150811        0.207704556         43.0150811        0.976569318        -34.0967209
          1.04e+09        0.97584299        -60.3374911        0.209998912         42.5446254        0.209998912         42.5446254         0.97647413        -34.4362857
          1.05e+09       0.975670366        -60.9421741        0.212226399         42.0734169        0.212226399         42.0734169         0.97630863        -34.7761318
          1.06e+09       0.975160623        -61.5469295        0.214104668         41.6002337        0.214104668         41.6002337        0.975796707        -35.1162154
          1.07e+09       0.974649193        -62.1523546        0.215985811          41.126569        0.215985811          41.126569        0.975282876         -35.456596
          1.08e+09       0.974130214        -62.7590287        0.218149083            40.6524        0.218149083            40.6524        0.974762515        -35.7972603
          1.09e+09       0.973606363        -63.3666877        0.220452727         40.1777333        0.220452727         40.1777333        0.974237772        -36.1382151
           1.1e+09       0.973082015        -63.9748296        0.222686846         39.7026537        0.222686846         39.7026537        0.973712092        -36.4794018
          1.11e+09       0.972563244        -64.5825933        0.224580176         39.2274485        0.224580176         39.2274485        0.973190196        -36.8205712
          1.12e+09       0.972042691        -65.1910408        0.226476423         38.7517494        0.226476423         38.7517494        0.972666307        -37.1620492
          1.13e+09       0.971513853        -65.8008066        0.228659129         38.2755376        0.228659129         38.2755376        0.972135401         -37.503808
          1.14e+09       0.970979829        -66.4115872        0.230979134         37.7988182        0.230979134         37.7988182        0.971599914        -37.8458617
          1.15e+09       0.970445415        -67.0229154        0.233225996          37.321601        0.233225996          37.321601        0.971063551         -38.188235
          1.16e+09       0.969917087        -67.6341625        0.235134652         36.8439001        0.235134652         36.8439001        0.970531243        -38.5309653
          1.17e+09       0.969386873        -68.2461055        0.237046258         36.3656931        0.237046258         36.3656931        0.969996851        -38.8740163
          1.18e+09       0.968847517        -68.8591609        0.239248703         35.8869821        0.239248703         35.8869821        0.969454907        -39.2170589
          1.19e+09       0.968302618        -69.4731334        0.241585418         35.4077619        0.241585418         35.4077619        0.968908167        -39.5602703
           1.2e+09       0.967757483        -70.0876393         0.24384522         34.9281084         0.24384522         34.9281084        0.968360626        -39.9038136
          1.21e+09       0.967219098        -70.7020084        0.245769125         34.4482788        0.245769125         34.4482788        0.967817476        -40.2477308
          1.22e+09       0.966678725        -71.3170829        0.247695994         33.9679324        0.247695994         33.9679324        0.967272153          -40.59198
          1.23e+09       0.966136331        -71.9328676        0.249625876         33.4870642        0.249625876         33.4870642        0.966724628        -40.9365666
          1.24e+09       0.965591903        -72.5493623        0.251558746          33.005674        0.251558746          33.005674        0.966174894        -41.2814911
          1.25e+09       0.965043055         -73.166712        0.253578714          32.523839        0.253578714          32.523839        0.965621191        -41.6266532
          1.26e+09       0.964482396        -73.7853746        0.255938503         32.0417894        0.255938503         32.0417894        0.965058102        -41.9717455
          1.27e+09       0.963919219         -74.404786        0.258301812         31.5592134        0.258301812         31.5592134        0.964492518        -42.3171724
          1.28e+09       0.963070755        -75.0242137        0.260363964         31.0746636        0.260363964         31.0746636        0.963628389         -42.662877
          1.29e+09       0.962101112        -75.6440598        0.262300883         30.5889613        0.262300883         30.5889613        0.962636852        -43.0088937
           1.3e+09       0.961212657        -76.2648521        0.264330712         30.1031416        0.264330712         30.1031416        0.961729832        -43.3552672
          1.31e+09       0.960639378        -76.8872341        0.266706926         29.6184233        0.266706926         29.6184233         0.96115329         -43.702052
          1.32e+09       0.960063447        -77.5103712        0.269086648         29.1331708        0.269086648         29.1331708        0.960574159         -44.049181
          1.33e+09       0.959494628        -78.1330495        0.271168345          28.647712        0.271168345          28.647712        0.959999445        -44.3964279
          1.34e+09       0.958927459        -78.7559618        0.273131384         28.1618503        0.273131384         28.1618503        0.959425166        -44.7439382
          1.35e+09       0.958358039        -79.3795925        0.275097334         27.6754527        0.275097334         27.6754527        0.958848515        -45.0918065
          1.36e+09        0.95778636        -80.0039395        0.277066148         27.1885206        0.277066148         27.1885206        0.958269489        -45.4400324
          1.37e+09       0.957212387        -80.6290065        0.279037873          26.701049        0.279037873          26.701049        0.957688058        -45.7886217
          1.38e+09       0.956625358        -81.2557934        0.281318493         26.2130054        0.281318493         26.2130054        0.957096666        -46.1374807
          1.39e+09       0.956031399        -81.8837216        0.283721022          25.724407        0.283721022          25.724407        0.956499692        -46.4866608
           1.4e+09       0.955438052        -82.5119957        0.286031337         25.2353699        0.286031337         25.2353699        0.955902433        -46.8361347
          1.41e+09       0.954854108        -83.1395795        0.288015217         24.7461508        0.288015217         24.7461508        0.955310965        -47.1857525
          1.42e+09       0.954267764        -83.7678835        0.290001961         24.2563872        0.290001961         24.2563872        0.954717029        -47.5357433
          1.43e+09       0.953667221         -84.397984        0.292302037         23.7660517        0.292302037         23.7660517        0.954112522        -47.8859842
          1.44e+09       0.953059402        -85.0292386        0.294720749         23.2751594        0.294720749         23.2751594        0.953502284        -48.2365452
          1.45e+09       0.952355421        -85.6608545        0.297040024         22.7833078        0.297040024         22.7833078        0.952789873         -48.587353
          1.46e+09       0.951342475        -86.2919019        0.299024122         22.2895487        0.299024122         22.2895487        0.951747596        -48.9381354
          1.47e+09       0.950326842        -86.9236765        0.301010598         21.7952287        0.301010598         21.7952287        0.950701822        -49.2892864
          1.48e+09       0.949615571         -87.555997        0.303010398         21.3020053        0.303010398         21.3020053        0.949976234        -49.6410144
          1.49e+09       0.949011036        -88.1889704         0.30501681         20.8088211         0.30501681         20.8088211        0.949363182        -49.9932002
           1.5e+09       0.948403953        -88.8226576        0.307025954         20.3150883        0.307025954         20.3150883        0.948747572         -50.345773
          1.51e+09       0.947794314        -89.4570551        0.309037776         19.8208087        0.309037776         19.8208087        0.948129405        -50.6987326
          1.52e+09       0.947182086        -90.0921651        0.311052313         19.3259782        0.311052313         19.3259782        0.947508657        -51.0520842
          1.53e+09       0.946553138        -90.7289344        0.313389162         18.8308838        0.313389162         18.8308838        0.946876053        -51.4053266
          1.54e+09        0.94591623        -91.3667734        0.315838119         18.3353359        0.315838119         18.3353359         0.94623745        -51.7587787
          1.55e+09       0.945176731        -92.0050006        0.318178876         17.8386754        0.318178876         17.8386754        0.945488533        -52.1125941
          1.56e+09       0.944136236        -92.6428702         0.32018793         17.3397752         0.32018793         17.3397752        0.944413972        -52.4667401
          1.57e+09       0.943092923        -93.2814555         0.32219914         16.8403141         0.32219914         16.8403141        0.943335768        -52.8212714
          1.58e+09       0.942361339        -93.9202079        0.324225184          16.342067        0.324225184          16.342067        0.942588848        -53.1761094
          1.59e+09       0.941729539        -94.5594842        0.326257879         15.8438459        0.326257879         15.8438459        0.941948326        -53.5313227
           1.6e+09       0.941089586        -95.1999353        0.328404367         15.3451606        0.328404367         15.3451606        0.941301677        -53.8868669
          1.61e+09       0.940430913        -95.8424777        0.330873179         14.8461742        0.330873179         14.8461742        0.940642201        -54.2425942
          1.62e+09       0.939768821        -96.4857581        0.333345048         14.3466362        0.333345048         14.3466362        0.939979788        -54.5987116
          1.63e+09       0.938801996        -97.1285785        0.335476965         13.8451038        0.335476965         13.8451038        0.938984425        -54.9551783
          1.64e+09       0.937738375        -97.7717319        0.337504136         13.3425651        0.337504136         13.3425651        0.937882642        -55.3120273
          1.65e+09       0.936783143        -98.4153779        0.339538184         12.8400018        0.339538184         12.8400018        0.936896563        -55.6692574
          1.66e+09       0.936131026        -99.0591441        0.341588043         12.3383498        0.341588043         12.3383498        0.936235813        -56.0268525
          1.67e+09       0.935476064        -99.7035914        0.343640266         11.8361482        0.343640266         11.8361482        0.935572386         -56.384864
          1.68e+09       0.934818421        -100.348405        0.345694703         11.3340243        0.345694703         11.3340243        0.934906302        -56.7429521
          1.69e+09       0.934157962          -100.9938        0.347751411         10.8315384        0.347751411         10.8315384        0.934237543        -57.1013579
           1.7e+09       0.933379715        -101.639967        0.349804868         10.3277576        0.349804868         10.3277576        0.933442247        -57.4600618
          1.71e+09       0.932295613        -102.287071        0.351845668         9.82145846        0.351845668         9.82145846        0.932317055        -57.8188525
          1.72e+09       0.931208566        -102.934854        0.353888169          9.3146091        0.353888169          9.3146091         0.93118809         -58.178049
          1.73e+09       0.930424457        -103.584668        0.356286803         8.80960456        0.356286803         8.80960456        0.930395656        -58.5376916
          1.74e+09       0.929723444        -104.235566        0.358788453           8.304733        0.358788453           8.304733        0.929696596        -58.8977501
          1.75e+09       0.928907797        -104.886665        0.361163568         7.79855474        0.361163568         7.79855474        0.928870594         -59.258204
          1.76e+09       0.927808238        -105.537174        0.363213791         7.28990279        0.363213791         7.28990279        0.927727455        -59.6190414
          1.77e+09       0.926705715        -106.188344        0.365265528         6.78070629        0.365265528         6.78070629        0.926580522        -59.9802918
          1.78e+09       0.925929135        -106.839172        0.367335888         6.27319948        0.367335888         6.27319948        0.925788111        -60.3416419
          1.79e+09       0.925238319        -107.490371        0.369412795         5.76575478        0.369412795         5.76575478        0.925089593        -60.7033387
           1.8e+09       0.924422773        -108.142458        0.371485043         5.25718418        0.371485043         5.25718418        0.924255368        -61.0654492
          1.81e+09       0.923308674        -108.795801         0.37354281         4.74665085         0.37354281         4.74665085        0.923094707        -61.4279322
          1.82e+09       0.922191612        -109.449785        0.375601893         4.23558037        0.375601893         4.23558037        0.921930248        -61.7908344
          1.83e+09       0.921403769        -110.103702        0.377680929         3.72587762        0.377680929         3.72587762        0.921126225        -62.1542468
          1.84e+09        0.92069814        -110.758058        0.379766495         3.21612831        0.379766495         3.21612831        0.920412889        -62.5181222
          1.85e+09       0.919864181        -111.413039        0.381846475         2.70516233        0.381846475         2.70516233        0.919559326        -62.8821223
          1.86e+09        0.91873488         -112.06867        0.383910667         2.19207268        0.383910667         2.19207268        0.918381367        -63.2458077
          1.87e+09       0.917602616        -112.724919         0.38597596         1.67845532         0.38597596         1.67845532        0.917199635        -63.6099166
          1.88e+09       0.916803239        -113.381383        0.388062428           1.166497        0.388062428           1.166497        0.916384384        -63.9749597
          1.89e+09        0.91608258        -114.038345        0.390155332        0.654543169        0.390155332        0.654543169         0.91565655        -64.3405738
           1.9e+09       0.915220305        -114.696823        0.392377034        0.141339693        0.392377034        0.141339693        0.914778423         -64.706236
          1.91e+09       0.914043633        -115.358012        0.394885633        -0.37400585        0.394885633        -0.37400585        0.913565433        -65.0714102
          1.92e+09        0.91286316        -116.019841        0.397395545       -0.889865887        0.397395545       -0.889865887        0.912348459        -65.4369817
          1.93e+09       0.912044978        -116.679435         0.39957146        -1.40398775         0.39957146        -1.40398775        0.911518487          -65.80371
          1.94e+09       0.911308124        -117.338936        0.401671371        -1.91810865        0.401671371        -1.91810865        0.910776053        -66.1710638
          1.95e+09         0.9104362        -117.999039         0.40376389        -2.43333679         0.40376389        -2.43333679        0.909884011        -66.5384988
          1.96e+09       0.909276551          -118.6598         0.40583847        -2.95034821         0.40583847        -2.95034821        0.908671365        -66.9055641
          1.97e+09       0.908113991        -119.321125        0.407913684        -3.46786592        0.407913684        -3.46786592        0.907455036        -67.2730637
          1.98e+09       0.907290205        -119.982519        0.410012635        -3.98431666        0.410012635        -3.98431666        0.906617761        -67.6416156
          1.99e+09       0.906537928        -120.644343        0.412117741         -4.5009331        0.412117741         -4.5009331        0.905861464        -68.0107623
             2e+09       0.905647398        -121.306898        0.414214608        -5.01855409        0.414214608        -5.01855409        0.904950728        -68.3801259
          2.01e+09       0.904473231        -121.970411        0.416292712        -5.53770729        0.416292712        -5.53770729        0.903721105        -68.7494248
          2.02e+09       0.903296203        -122.634457        0.418371203        -6.05735484        0.418371203        -6.05735484        0.902487865        -69.1191652
          2.03e+09       0.902460929        -123.298135        0.420474376        -6.57586322        0.420474376        -6.57586322         0.90164036        -69.4896165
          2.04e+09       0.901693554        -123.962131         0.42258343        -7.09453322         0.42258343        -7.09453322        0.900870568        -69.8605904
          2.05e+09       0.900784633        -124.626706        0.424683178        -7.61418069        0.424683178        -7.61418069        0.899941615        -70.2315995
          2.06e+09       0.899595876        -125.291949        0.426762961        -8.13527734        0.426762961        -8.13527734        0.898695876        -70.6021903
          2.07e+09       0.898404312        -125.957692        0.428842877        -8.65685404        0.428842877        -8.65685404        0.897446616        -70.9732268
          2.08e+09       0.897209957        -126.623928        0.430922875        -9.17890797        0.430922875        -9.17890797        0.896193856        -71.3447103
          2.09e+09       0.896012826        -127.290648        0.433002901        -9.70143628        0.433002901        -9.70143628        0.894937615        -71.7166423
           2.1e+09       0.894954735        -127.957608        0.435093799        -10.2236699        0.435093799        -10.2236699         0.89383967        -72.0893375
          2.11e+09       0.894166864        -128.624562        0.437206051        -10.7449049        0.437206051        -10.7449049        0.893050725        -72.4631073
          2.12e+09       0.893375918        -129.291961        0.439318835         -11.266619        0.439318835         -11.266619        0.892259574        -72.8373589
          2.13e+09       0.892231434        -129.960064         0.44140406        -11.7903097         0.44140406        -11.7903097        0.891064387        -73.2108756
          2.14e+09       0.891020321        -130.628664        0.443483992         -12.314735        0.443483992         -12.314735        0.889792664        -73.5846265
          2.15e+09       0.889806452        -131.297555        0.445563541         -12.839593        0.445563541         -12.839593        0.888517687        -73.9586597
