# GHz S MA R 50

1.000000000000000e+00  9.7508865241495934e-01 -6.6166600053374239e+01  9.1161133794667359e-01 -7.8074840791126334e+01  9.1112461737676265e-01 -7.8220645858476985e+01  1.1525532523947755e+00 -5.0703548154511076e+01
1.004375000000000e+00  9.7528726284458422e-01 -6.6322578604422418e+01  9.1290019260608224e-01 -7.8071858964484989e+01  9.1234952439514072e-01 -7.8236686822811620e+01  1.1526339993812023e+00 -5.0796941533162261e+01
1.008750000000000e+00  9.7520707528453809e-01 -6.6494642692179042e+01  9.1401137319553227e-01 -7.8075330740564780e+01  9.1362926507106434e-01 -7.8189337743773706e+01  1.1525801610091548e+00 -5.0886713877246862e+01
1.013125000000000e+00  9.7523568665922689e-01 -6.6671220387555536e+01  9.1524041931331657e-01 -7.8080839944320289e+01  9.1482415919592719e-01 -7.8204986026106297e+01  1.1525855639078080e+00 -5.0982672314129893e+01
1.017500000000000e+00  9.7515389562495880e-01 -6.6877928441412919e+01  9.1655118129466140e-01 -7.8089849141797259e+01  9.1631339344795903e-01 -7.8160550344259249e+01  1.1526079174096500e+00 -5.1085029562655208e+01
1.021875000000000e+00  9.7494226563289299e-01 -6.7104491647014555e+01  9.1785252677434004e-01 -7.8101628716088115e+01  9.1759777234176731e-01 -7.8177361695555163e+01  1.1524235746246874e+00 -5.1200387269347438e+01
1.026250000000000e+00  9.7466357525732961e-01 -6.7342737434855593e+01  9.1914134111799051e-01 -7.8117098050610750e+01  9.1888223001204816e-01 -7.8194126048864049e+01  1.1520531861850141e+00 -5.1327629013397924e+01
1.030625000000000e+00  9.7449131911888154e-01 -6.7587169958467683e+01  9.2055125258582782e-01 -7.8133621819762709e+01  9.2049106661944102e-01 -7.8151464180551415e+01  1.1518600224448987e+00 -5.1453986590353374e+01
1.035000000000000e+00  9.7437978239962597e-01 -6.7854027552652639e+01  9.2214984381248699e-01 -7.8149647669797403e+01  9.2207409675469643e-01 -7.8172100154966500e+01  1.1516642498693086e+00 -5.1595563009079790e+01
1.039375000000000e+00  9.7440789477487011e-01 -6.8146941187299859e+01  9.2404862506539476e-01 -7.8159850535472216e+01  9.2413117479060025e-01 -7.8135462038515158e+01  1.1515589264008081e+00 -5.1753994912514543e+01
1.043750000000000e+00  9.7421659799749571e-01 -6.8422559844817684e+01  9.2559853945861104e-01 -7.8171760613881943e+01  9.2565437638934212e-01 -7.8155268824241702e+01  1.1512170439739380e+00 -5.1900952955537505e+01
1.048125000000000e+00  9.7401316434446394e-01 -6.8693631011678448e+01  9.2709343955830426e-01 -7.8181473895190877e+01  9.2732340116344902e-01 -7.8113762756628319e+01  1.1509096928890201e+00 -5.2041336753486490e+01
1.052500000000000e+00  9.7379648445652489e-01 -6.8960168503630825e+01  9.2853799259095782e-01 -7.8187620294423112e+01  9.2872702020130560e-01 -7.8131988473924295e+01  1.1505049035898758e+00 -5.2183532687334527e+01
1.056875000000000e+00  9.7380456060076526e-01 -6.9225603339581653e+01  9.3021019927625326e-01 -7.8181795570028910e+01  9.3051575963136235e-01 -7.8092212360895530e+01  1.1502334899480495e+00 -5.2332605463112529e+01
1.061250000000000e+00  9.7366574814243156e-01 -6.9496921365977926e+01  9.3180830267409709e-01 -7.8161137850687439e+01  9.3197899327783718e-01 -7.8111181174005594e+01  1.1500031704444305e+00 -5.2469601938124825e+01
1.065625000000000e+00  9.7343874578411549e-01 -6.9775495408473546e+01  9.3339857202015286e-01 -7.8124656126774312e+01  9.3358881512248226e-01 -7.8069260787635145e+01  1.1497309372747111e+00 -5.2604805382396371e+01
1.070000000000000e+00  9.7328173009505703e-01 -7.0057107283291359e+01  9.3510408826166769e-01 -7.8073061316674895e+01  9.3525884256360925e-01 -7.8028260399270749e+01  1.1494397895416411e+00 -5.2746756958253052e+01
1.074375000000000e+00  9.7320571090778507e-01 -7.0340012233484813e+01  9.3693503232622510e-01 -7.8003716785234687e+01  9.3698904590379795e-01 -7.7988182970167188e+01  1.1491675509575658e+00 -5.2893042487619688e+01
1.078750000000000e+00  9.7268268298421701e-01 -7.0615107491450487e+01  9.3832497074519594e-01 -7.7918388022269511e+01  9.3845160311576159e-01 -7.7882320962881195e+01  1.1486595435454512e+00 -5.3015021398494433e+01
1.083125000000000e+00  9.7251156607923417e-01 -7.0883897711595750e+01  9.4002728952316106e-01 -7.7825021121733769e+01  9.3997463537562842e-01 -7.7839906115839440e+01  1.1482849915927926e+00 -5.3151420579796280e+01
1.087500000000000e+00  9.7225413474668709e-01 -7.1165811656638823e+01  9.4172173324502950e-01 -7.7726154480527114e+01  9.4146835300983422e-01 -7.7797235963261258e+01  1.1478195169891525e+00 -5.3291882113952802e+01
1.091875000000000e+00  9.7207811707714364e-01 -7.1449012706740376e+01  9.4348676238040574e-01 -7.7626174672703812e+01  9.4323482808396009e-01 -7.7696125459555262e+01  1.1473736072341543e+00 -5.3436720526820544e+01
1.096250000000000e+00  9.7193462966631616e-01 -7.1713534143285329e+01  9.4515702281450054e-01 -7.7527627724991746e+01  9.4470048502617565e-01 -7.7653434312770173e+01  1.1470425772435657e+00 -5.3566688927037909e+01
1.100625000000000e+00  9.7189892591068283e-01 -7.1979797855281845e+01  9.4693105140587130e-01 -7.7427480442485646e+01  9.4647111939877937e-01 -7.7552938021904168e+01  1.1468635083293246e+00 -5.3694524963016512e+01
1.105000000000000e+00  9.7169353005598702e-01 -7.2257590662024199e+01  9.4855372669335625e-01 -7.7335532370502747e+01  9.4790873186786773e-01 -7.7510215270958369e+01  1.1464114872705049e+00 -5.3831110433718543e+01
1.109375000000000e+00  9.7146029847070603e-01 -7.2527006160410565e+01  9.5005586050842927e-01 -7.7251654582425445e+01  9.4947501215112506e-01 -7.7407516213729494e+01  1.1460355894891894e+00 -5.3955239783869480e+01
1.113750000000000e+00  9.7116806372375764e-01 -7.2787535508195205e+01  9.5139018959289712e-01 -7.7179848841982903e+01  9.5070596161844789e-01 -7.7362332361279073e+01  1.1454587992583405e+00 -5.4083285055388743e+01
1.118125000000000e+00  9.7092123766479632e-01 -7.3061850083663643e+01  9.5275401838795637e-01 -7.7125573506759338e+01  9.5202681992976235e-01 -7.7318475104992302e+01  1.1448192567692566e+00 -5.4224049840970608e+01
1.122500000000000e+00  9.7075217034839378e-01 -7.3331637674395026e+01  9.5410067276146904e-01 -7.7084366726581464e+01  9.5359877080972277e-01 -7.7216535359662558e+01  1.1443003406903207e+00 -5.4359651896166518e+01
1.126875000000000e+00  9.7065801007145713e-01 -7.3609951375883981e+01  9.5547037709332316e-01 -7.7061895478510252e+01  9.5504050021661124e-01 -7.7174638659764526e+01  1.1439509906338046e+00 -5.4491817827793085e+01
1.131250000000000e+00  9.7020105401094348e-01 -7.3889236627585944e+01  9.5641663534556898e-01 -7.7051939146830179e+01  9.5612572717436373e-01 -7.7127981296489651e+01  1.1433444990500792e+00 -5.4610945369566814e+01
1.135625000000000e+00  9.6988022970652843e-01 -7.4165050554787769e+01  9.5740255994434775e-01 -7.7056134760170067e+01  9.5730082236692815e-01 -7.7082654801543484e+01  1.1426415258733273e+00 -5.4745343285644459e+01
1.140000000000000e+00  9.6967827877454105e-01 -7.4440754507286968e+01  9.5845039308402014e-01 -7.7068659288915015e+01  9.5856573510368681e-01 -7.7038666997026837e+01  1.1418793085881656e+00 -5.4892568727881226e+01
1.144375000000000e+00  9.6932216108372049e-01 -7.4713714000839900e+01  9.5928569314662437e-01 -7.7087594406075155e+01  9.5965280348138293e-01 -7.6992334966678328e+01  1.1411669934371340e+00 -5.5020908880461512e+01
1.148750000000000e+00  9.6911602113959505e-01 -7.4979556722108697e+01  9.6020693797603784e-01 -7.7108603118837181e+01  9.6082968501981003e-01 -7.6947340923187824e+01  1.1406401811203477e+00 -5.5144488665226405e+01
1.153125000000000e+00  9.6911402609708952e-01 -7.5253957641733663e+01  9.6134676425133370e-01 -7.7129747826158720e+01  9.6244227803147431e-01 -7.6847355878085196e+01  1.1401204326536534e+00 -5.5286902285352383e+01
1.157500000000000e+00  9.6901511018014996e-01 -7.5533989350983688e+01  9.6244159797578333e-01 -7.7138117134993763e+01  9.6373990864115111e-01 -7.6804326208102879e+01  1.1396709058290673e+00 -5.5416726560785733e+01
1.161875000000000e+00  9.6870948529893164e-01 -7.5823667190025446e+01  9.6340209145277989e-01 -7.7132543331823143e+01  9.6508938256035071e-01 -7.6701132170389428e+01  1.1391625958223215e+00 -5.5535114066577151e+01
1.166250000000000e+00  9.6858264502352953e-01 -7.6076718315655171e+01  9.6444424863376321e-01 -7.7105771550842462e+01  9.6621069003319260e-01 -7.6655911328671650e+01  1.1385214286630885e+00 -5.5663750855805212e+01
1.170625000000000e+00  9.6861107083836584e-01 -7.6357800552215210e+01  9.6581163441044604e-01 -7.7059797715422107e+01  9.6780210111880305e-01 -7.6556549466807468e+01  1.1381050751292905e+00 -5.5798171171178730e+01
1.175000000000000e+00  9.6862606295986853e-01 -7.6640198678756676e+01  9.6721681146874061e-01 -7.6996372467080647e+01  9.6936674417319524e-01 -7.6457091752193605e+01  1.1375329659015883e+00 -5.5942014665100110e+01
1.179375000000000e+00  9.6835625100949496e-01 -7.6905366583220598e+01  9.6835797955423808e-01 -7.6904926905483933e+01  9.7034296792777608e-01 -7.6410235958535466e+01  1.1366811742831533e+00 -5.6074426106081077e+01
1.183750000000000e+00  9.6812339675763182e-01 -7.7174599675630105e+01  9.6959575338530635e-01 -7.6797866988473046e+01  9.7158573716707108e-01 -7.6306589605664016e+01  1.1357759649447916e+00 -5.6214288730244299e+01
1.188125000000000e+00  9.6763057116138007e-01 -7.7443948441487663e+01  9.7062938756594530e-01 -7.6672447216952222e+01  9.7232688669734790e-01 -7.6256575003742114e+01  1.1348518795940497e+00 -5.6331298898612111e+01
1.192500000000000e+00  9.6737703775661255e-01 -7.7705276972711857e+01  9.7187947275291653e-01 -7.6541494849149316e+01  9.7348546387341650e-01 -7.6152047039424815e+01  1.1341020023266390e+00 -5.6452327095233656e+01
1.196875000000000e+00  9.6713533016206643e-01 -7.7977723313816497e+01  9.7320373432708285e-01 -7.6401696679882235e+01  9.7443626836655228e-01 -7.6105264752039389e+01  1.1333322323433381e+00 -5.6578227677695239e+01
1.201250000000000e+00  9.6704744309405910e-01 -7.8248232044151266e+01  9.7467228349234147e-01 -7.6259191106616740e+01  9.7550619610451761e-01 -7.6060301103458400e+01  1.1326029752295832e+00 -5.6712850340925293e+01
1.205625000000000e+00  9.6710729624660952e-01 -7.8509232621624207e+01  9.7621742115113974e-01 -7.6122751480406762e+01  9.7666556273665239e-01 -7.6016733943244674e+01  1.1319232549878924e+00 -5.6852766610686899e+01
1.210000000000000e+00  9.6688216488251111e-01 -7.8777668633446481e+01  9.7748311854598868e-01 -7.5987184398700620e+01  9.7755902634482084e-01 -7.5969368371736309e+01  1.1312694534880248e+00 -5.6965829825418950e+01
1.214375000000000e+00  9.6669083601371719e-01 -7.9051894949961252e+01  9.7874285438188402e-01 -7.5861933101892575e+01  9.7824000500584574e-01 -7.5979335280258255e+01  1.1304466967913029e+00 -5.7095444577782850e+01
1.218750000000000e+00  9.6632134369876244e-01 -7.9311095271889300e+01  9.7971238497487689e-01 -7.5746892063962761e+01  9.7892678015443657e-01 -7.5929040849029050e+01  1.1294575144666701e+00 -5.7215939731170920e+01
1.223125000000000e+00  9.6606960878497949e-01 -7.9578919309234536e+01  9.8071331086955749e-01 -7.5654574450722109e+01  9.7948922657859283e-01 -7.5937287039917067e+01  1.1284279073874250e+00 -5.7351731026103032e+01
1.227500000000000e+00  9.6574036351195880e-01 -7.9838471627682310e+01  9.8153201192951067e-01 -7.5575763948415869e+01  9.7993327754610504e-01 -7.5943790503981234e+01  1.1272853092331172e+00 -5.7485742853002456e+01
1.231875000000000e+00  9.6560992822103631e-01 -8.0111078317609397e+01  9.8247157290748965e-01 -7.5520019474037667e+01  9.8058457511065944e-01 -7.5953318263211145e+01  1.1261822635847618e+00 -5.7637647076928317e+01
1.236250000000000e+00  9.6545190843464979e-01 -8.0368559666435345e+01  9.8322775881628921e-01 -7.5484560484203996e+01  9.8114708116540250e-01 -7.5961536602812316e+01  1.1250747636780989e+00 -5.7782103050678479e+01
1.240625000000000e+00  9.6500795816471718e-01 -8.0646999716453195e+01  9.8363881892728411e-01 -7.5470101649307296e+01  9.8147275178359894e-01 -7.5966290283181237e+01  1.1238161856269353e+00 -5.7916278128703105e+01
1.245000000000000e+00  9.6460968578099116e-01 -8.0905713672663666e+01  9.8395146119651156e-01 -7.5470689521143711e+01  9.8201172067289455e-01 -7.5914004106645038e+01  1.1225701896065245e+00 -5.8047285774999651e+01
1.249375000000000e+00  9.6433093896886057e-01 -8.1161888196450519e+01  9.8428578060553529e-01 -7.5487660785618161e+01  9.8264028625089384e-01 -7.5863079268801840e+01  1.1214722333414922e+00 -5.8175750987356039e+01
1.253750000000000e+00  9.6441829621598885e-01 -8.1439650208313765e+01  9.8496040088548931e-01 -7.5520279607312006e+01  9.8365425926639904e-01 -7.5817883511114474e+01  1.1207175026367249e+00 -5.8315123834852592e+01
1.258125000000000e+00  9.6415713093492694e-01 -8.1717809599561036e+01  9.8526357868996206e-01 -7.5551407417894836e+01  9.8431386842050606e-01 -7.5767541897934166e+01  1.1196413638373892e+00 -5.8446210229345972e+01
1.262500000000000e+00  9.6417321378184151e-01 -8.1992745755899378e+01  9.8581299741112349e-01 -7.5583901764185711e+01  9.8545795676927272e-01 -7.5664425525757665e+01  1.1187635339019546e+00 -5.8585400385966345e+01
1.266875000000000e+00  9.6408084145955530e-01 -8.2257460387052745e+01  9.8625854046672135e-01 -7.5604283275237236e+01  9.8645746177240412e-01 -7.5559338822941314e+01  1.1177460605462168e+00 -5.8722084716486300e+01
1.271250000000000e+00  9.6389596590794357e-01 -8.2517678588680880e+01  9.8663144195527852e-01 -7.5612586003774794e+01  9.8734212116892495e-01 -7.5452686123305298e+01  1.1165673528758515e+00 -5.8861139258974291e+01
1.275625000000000e+00  9.6347385911080885e-01 -8.2768736246303206e+01  9.8677812310450730e-01 -7.5607910724990376e+01  9.8796447381344976e-01 -7.5342195199759360e+01  1.1153013276915114e+00 -5.8981125277897810e+01
1.280000000000000e+00  9.6323049188028853e-01 -8.3046778835419104e+01  9.8723612020410989e-01 -7.5582731050132026e+01  9.8879706346364682e-01 -7.5234999153405042e+01  1.1140981843197031e+00 -5.9117798835160343e+01
1.284375000000000e+00  9.6303638927639945e-01 -8.3295891020005698e+01  9.8771805698396897e-01 -7.5545132917707505e+01  9.8960361316958323e-01 -7.5127530358703297e+01  1.1127503727137404e+00 -5.9264767824187459e+01
1.288750000000000e+00  9.6285421445766806e-01 -8.3532263467953669e+01  9.8823582126408405e-01 -7.5492567817471667e+01  9.9038415833959159e-01 -7.5019780633161560e+01  1.1116321814844592e+00 -5.9389626894089965e+01
1.293125000000000e+00  9.6288156505137112e-01 -8.3797376256892605e+01  9.8907514252575091e-01 -7.5424791446826575e+01  9.9140392725393611e-01 -7.4915873684890983e+01  1.1105439724785293e+00 -5.9537408763392719e+01
1.297500000000000e+00  9.6264372178720592e-01 -8.4068003813529458e+01  9.8973504762738240e-01 -7.5334308588412313e+01  9.9190030310628496e-01 -7.4863770270442956e+01  1.1092722947638549e+00 -5.9674236668832577e+01
1.301875000000000e+00  9.6239699667534351e-01 -8.4338579862936626e+01  9.9040289496850109e-01 -7.5235814258432200e+01  9.9236804683446256e-01 -7.4811257397859080e+01  1.1080573174633368e+00 -5.9803764399394609e+01
1.306250000000000e+00  9.6197629039887234e-01 -8.4597235689493829e+01  9.9089068280005765e-01 -7.5129167906829309e+01  9.9263051553840820e-01 -7.4755552550345428e+01  1.1066784339556488e+00 -5.9926667418118470e+01
1.310625000000000e+00  9.6163599526303267e-01 -8.4856438617291886e+01  9.9144086202909354e-01 -7.5023538443451443e+01  9.9295279402571934e-01 -7.4700806541797832e+01  1.1052509104180108e+00 -6.0061051449474533e+01
1.315000000000000e+00  9.6149004628923540e-01 -8.5122184632598319e+01  9.9217517642849562e-01 -7.4919927038750416e+01  9.9318828467266729e-01 -7.4704522782073241e+01  1.1041248939386545e+00 -6.0188137599998917e+01
1.319375000000000e+00  9.6120043438983305e-01 -8.5396340361062386e+01  9.9272551050793045e-01 -7.4822661925297240e+01  9.9354083643427171e-01 -7.4650289982244644e+01  1.1027659718246354e+00 -6.0321199007660034e+01
1.323750000000000e+00  9.6079453222778233e-01 -8.5659080045635619e+01  9.9309131204417700e-01 -7.4731678134780367e+01  9.9321772129724029e-01 -7.4704987188200320e+01  1.1013555285795107e+00 -6.0443767820025663e+01
1.328125000000000e+00  9.6030885594859294e-01 -8.5928912586487371e+01  9.9333496461278037e-01 -7.4647001115023983e+01  9.9307053882697460e-01 -7.4702664882247149e+01  1.0997054670400821e+00 -6.0579538880828018e+01
1.332500000000000e+00  9.6040070376797626e-01 -8.6193918168143227e+01  9.9404942500765447e-01 -7.4583510367068982e+01  9.9345321664227637e-01 -7.4708701446444707e+01  1.0985258270730245e+00 -6.0731119799804475e+01
1.336875000000000e+00  9.6025407386312012e-01 -8.6443315784919420e+01  9.9441491338170707e-01 -7.4533680081815533e+01  9.9357096587982630e-01 -7.4710557915300271e+01  1.0972625129753353e+00 -6.0862125309116323e+01
1.341250000000000e+00  9.6014205692826193e-01 -8.6707434561060808e+01  9.9474935698836719e-01 -7.4497059392574414e+01  9.9371815389324214e-01 -7.4712877882673695e+01  1.0960908350868375e+00 -6.0988625127232332e+01
1.345625000000000e+00  9.5995579948098053e-01 -8.6974958516345310e+01  9.9490202879085843e-01 -7.4478523136244846e+01  9.9377702955469760e-01 -7.4713805677201009e+01  1.0947706450163017e+00 -6.1120072884751224e+01
1.350000000000000e+00  9.5978314954682553e-01 -8.7251678898319639e+01  9.9503028060092913e-01 -7.4465071637108963e+01  9.9409999849849295e-01 -7.4659136375741298e+01  1.0933388299057731e+00 -6.1263054436696912e+01
1.354375000000000e+00  9.5941016695014436e-01 -8.7498730732644475e+01  9.9485386566674650e-01 -7.4462247296839649e+01  9.9418849406639620e-01 -7.4600767327693816e+01  1.0919186830387047e+00 -6.1379188492969519e+01
1.358750000000000e+00  9.5919079947943431e-01 -8.7771829747447583e+01  9.9479994206883149e-01 -7.4466856763275217e+01  9.9469204315028292e-01 -7.4489233327172073e+01  1.0905206528249398e+00 -6.1510722658633568e+01
1.363125000000000e+00  9.5905111482688921e-01 -8.8050638261451752e+01  9.9481708767084687e-01 -7.4469867613725924e+01  9.9525813824053144e-01 -7.4378758835315438e+01  1.0891241245163643e+00 -6.1649770063275142e+01
1.367500000000000e+00  9.5881748349667162e-01 -8.8318371622851046e+01  9.9470436678873753e-01 -7.4473536631425347e+01  9.9571043192253983e-01 -7.4266505864043424e+01  1.0877419007102704e+00 -6.1774801839932891e+01
1.371875000000000e+00  9.5863605989214151e-01 -8.8584451221018426e+01  9.9466598567566089e-01 -7.4468361122934269e+01  9.9619590203073916e-01 -7.4154834509625900e+01  1.0865211809255924e+00 -6.1888132771072591e+01
1.376250000000000e+00  9.5841552164473898e-01 -8.8846904560522162e+01  9.9462196282597637e-01 -7.4451234103336347e+01  9.9662646941645794e-01 -7.4042307731122150e+01  1.0850789540721828e+00 -6.2017279212828178e+01
1.380625000000000e+00  9.5821227410649323e-01 -8.9120420569419949e+01  9.9463947292402399e-01 -7.4421404509156602e+01  9.9706087761104756e-01 -7.3929878572575944e+01  1.0837848690231626e+00 -6.2132504336151761e+01
1.385000000000000e+00  9.5809287627808748e-01 -8.9388610275585449e+01  9.9481462704966361e-01 -7.4372207889608120e+01  9.9783688140842064e-01 -7.3763379542165893e+01  1.0823929269148671e+00 -6.2265234610176023e+01
1.389375000000000e+00  9.5790441734764131e-01 -8.9642225473902798e+01  9.9500965186884827e-01 -7.4299609035594372e+01  9.9797048808373978e-01 -7.3705807657541854e+01  1.0808691194603075e+00 -6.2401791807234304e+01
1.393750000000000e+00  9.5758231704652064e-01 -8.9890440991112087e+01  9.9514659514320392e-01 -7.4206896267990487e+01  9.9824072305176692e-01 -7.3590710412051024e+01  1.0791879282778349e+00 -6.2537873303631613e+01
1.398125000000000e+00  9.5724864018526856e-01 -9.0160742671244705e+01  9.9536546047121077e-01 -7.4091763863101690e+01  9.9820175664768684e-01 -7.3530206086711203e+01  1.0774717226226138e+00 -6.2675075449077660e+01
1.402500000000000e+00  9.5714809375917587e-01 -9.0416516519708338e+01  9.9584842973130960e-01 -7.3969105712279003e+01  9.9836869918587956e-01 -7.3473185263803529e+01  1.0760911856758257e+00 -6.2803457786559477e+01
