# GHz S MA R 50

1.000000000000000e+00  1.0007955029185138e+00 -4.5982201864849984e+01
1.005625000000000e+00  1.0026525176659329e+00 -4.6239387701237078e+01
1.011250000000000e+00  1.0003253981973672e+00 -4.6358484814291259e+01
1.016875000000000e+00  1.0015927209401028e+00 -4.6713644598819911e+01
1.022500000000000e+00  1.0009294080094526e+00 -4.6991621241875194e+01
1.028125000000000e+00  1.0017586160479184e+00 -4.7207341676777460e+01
1.033750000000000e+00  1.0034265912281837e+00 -4.7541576531796103e+01
1.039375000000000e+00  1.0011500217591880e+00 -4.7640077968469008e+01
1.045000000000000e+00  1.0035673202037898e+00 -4.8012398988858486e+01
1.050625000000000e+00  1.0002179620737430e+00 -4.8239141435109836e+01
1.056250000000000e+00  1.0010855899143012e+00 -4.8514701844580678e+01
1.061875000000000e+00  1.0018615467018428e+00 -4.8784029511275342e+01
1.067500000000000e+00  1.0038837126974067e+00 -4.8903537716719441e+01
1.073125000000000e+00  1.0021739854792036e+00 -4.9266424293565045e+01
1.078750000000000e+00  1.0000853511402323e+00 -4.9532021235549273e+01
1.084375000000000e+00  1.0018119754417734e+00 -4.9874639960198600e+01
1.090000000000000e+00  1.0026353090164322e+00 -5.0060009593683873e+01
1.095625000000000e+00  1.0025309635558326e+00 -5.0200458302923494e+01
1.101250000000000e+00  1.0005536418768475e+00 -5.0616653216893589e+01
1.106875000000000e+00  1.0016179913912997e+00 -5.0984130567765952e+01
1.112500000000000e+00  1.0028714476021683e+00 -5.1086958999722761e+01
1.118125000000000e+00  1.0026924666209374e+00 -5.1060768779207386e+01
1.123750000000000e+00  9.9966250998029893e-01 -5.1494804146092498e+01
1.129375000000000e+00  1.0026129990556087e+00 -5.1997144681505716e+01
1.135000000000000e+00  1.0033679870817149e+00 -5.2114775980384366e+01
1.140625000000000e+00  1.0018502572070307e+00 -5.2254975321673584e+01
1.146250000000000e+00  1.0031317328140958e+00 -5.2597412610571730e+01
1.151875000000000e+00  1.0012040884503950e+00 -5.2767891276943566e+01
1.157500000000000e+00  1.0024294199833148e+00 -5.3092076811650585e+01
1.163125000000000e+00  1.0015094385396579e+00 -5.3433889178496329e+01
1.168750000000000e+00  1.0016148207064346e+00 -5.3557805134184242e+01
1.174375000000000e+00  1.0014186720152780e+00 -5.3835524922565369e+01
1.180000000000000e+00  1.0015756665701880e+00 -5.4299156192387052e+01
1.185625000000000e+00  1.0015645463434582e+00 -5.4446898404220711e+01
1.191250000000000e+00  9.9913347641325423e-01 -5.4757512901211378e+01
1.196875000000000e+00  1.0015993241884331e+00 -5.4963787760128866e+01
1.202500000000000e+00  9.9836906600046937e-01 -5.4974979621563897e+01
1.208125000000000e+00  1.0000276906307255e+00 -5.5460769516864701e+01
1.213750000000000e+00  1.0010278814232800e+00 -5.5680126253901982e+01
1.219375000000000e+00  1.0019575959193250e+00 -5.5977901785694911e+01
1.225000000000000e+00  1.0012163014700037e+00 -5.6159779029206049e+01
1.230625000000000e+00  1.0005053234370975e+00 -5.6460192620960775e+01
1.236250000000000e+00  1.0003280739441838e+00 -5.6748676673193607e+01
1.241875000000000e+00  1.0028569219243424e+00 -5.7099148567730346e+01
1.247500000000000e+00  1.0009055526481094e+00 -5.7043509401271265e+01
1.253125000000000e+00  1.0044910795275033e+00 -5.7469664354305266e+01
1.258750000000000e+00  9.9849527461239196e-01 -5.7684068069016291e+01
1.264375000000000e+00  1.0019261168767932e+00 -5.8044933353613310e+01
1.270000000000000e+00  1.0002316755095839e+00 -5.8297214262925962e+01
1.275625000000000e+00  1.0010116654730612e+00 -5.8585090768802033e+01
1.281250000000000e+00  1.0002458184572449e+00 -5.8801801985219221e+01
1.286875000000000e+00  1.0010267328854627e+00 -5.8869686438505042e+01
1.292500000000000e+00  1.0024706199391558e+00 -5.9189997044087001e+01
1.298125000000000e+00  9.9951628817663141e-01 -5.9416665628365401e+01
1.303750000000000e+00  1.0019736204226168e+00 -5.9770695443359450e+01
1.309375000000000e+00  1.0013502846845002e+00 -5.9992182610545015e+01
1.315000000000000e+00  1.0022029193528199e+00 -6.0285847723818655e+01
1.320625000000000e+00  1.0002190696399247e+00 -6.0699192542229881e+01
1.326250000000000e+00  1.0001396830425806e+00 -6.0864906704790130e+01
1.331875000000000e+00  1.0032125114173804e+00 -6.0954706754917908e+01
1.337500000000000e+00  9.9965851231796943e-01 -6.1287216828989813e+01
1.343125000000000e+00  1.0016024354130710e+00 -6.1693687150302765e+01
1.348750000000000e+00  1.0039206222700263e+00 -6.1919009470583156e+01
1.354375000000000e+00  1.0024497124262315e+00 -6.2065822399545091e+01
1.360000000000000e+00  1.0005890840618303e+00 -6.2289967333805322e+01
1.365625000000000e+00  1.0015998667472807e+00 -6.2552704154053167e+01
1.371250000000000e+00  1.0032455305449202e+00 -6.2983650711506044e+01
1.376875000000000e+00  1.0024686912766230e+00 -6.3086268787610713e+01
1.382500000000000e+00  1.0002804624570245e+00 -6.3482635360924675e+01
1.388125000000000e+00  1.0023727379537117e+00 -6.3606574308561186e+01
1.393750000000000e+00  9.9999240224157337e-01 -6.3946365057284247e+01
1.399375000000000e+00  1.0032062260698869e+00 -6.4191053311205067e+01
1.405000000000000e+00  1.0024258890637228e+00 -6.4436613980397524e+01
1.410625000000000e+00  1.0006427208184896e+00 -6.4724472332375839e+01
1.416250000000000e+00  1.0022596760319851e+00 -6.4806676170826094e+01
1.421875000000000e+00  1.0010183409369169e+00 -6.5181916030183316e+01
1.427500000000000e+00  1.0013864654863900e+00 -6.5614137801595447e+01
1.433125000000000e+00  1.0017587759541746e+00 -6.5719568703082828e+01
1.438750000000000e+00  1.0019239199250607e+00 -6.5962911802464944e+01
1.444375000000000e+00  1.0003192101563065e+00 -6.6126605775391965e+01
1.450000000000000e+00  1.0025071086803932e+00 -6.6615903889372007e+01
1.455625000000000e+00  1.0010584044144659e+00 -6.6658065408555913e+01
1.461250000000000e+00  1.0021992022441037e+00 -6.7056157535048882e+01
1.466875000000000e+00  1.0036250807961304e+00 -6.7321167840256635e+01
1.472500000000000e+00  1.0021530095131606e+00 -6.7427780752107068e+01
1.478125000000000e+00  1.0022327100872488e+00 -6.7686386732394254e+01
1.483750000000000e+00  1.0026530341112705e+00 -6.8104678485778209e+01
1.489375000000000e+00  1.0026808990080998e+00 -6.8274365687381433e+01
1.495000000000000e+00  1.0031584986622317e+00 -6.8498958820997714e+01
1.500625000000000e+00  1.0011012990502282e+00 -6.8790190594283899e+01
1.506250000000000e+00  1.0024705484040510e+00 -6.9082206689407258e+01
1.511875000000000e+00  1.0022096454259981e+00 -6.9199732555187893e+01
1.517500000000000e+00  1.0030436724972580e+00 -6.9478639674503853e+01
1.523125000000000e+00  1.0036591237737575e+00 -6.9724119531648412e+01
1.528750000000000e+00  1.0028589273839899e+00 -7.0061879703667245e+01
1.534375000000000e+00  1.0033928786804807e+00 -7.0306320787333476e+01
1.540000000000000e+00  1.0023307130646655e+00 -7.0497551493337781e+01
1.545625000000000e+00  1.0021668874432148e+00 -7.0808596834995043e+01
1.551250000000000e+00  1.0031686853725863e+00 -7.1011099912250998e+01
1.556875000000000e+00  1.0031919387218671e+00 -7.1434974019024679e+01
1.562500000000000e+00  1.0043480166437759e+00 -7.1627812690761232e+01
1.568125000000000e+00  1.0042981642585351e+00 -7.1802896722907619e+01
1.573750000000000e+00  1.0042975587074685e+00 -7.1987890581748488e+01
1.579375000000000e+00  1.0036689880551086e+00 -7.2424506048219953e+01
1.585000000000000e+00  1.0032593631926527e+00 -7.2608962188441225e+01
1.590625000000000e+00  1.0025556083991913e+00 -7.2903169457757457e+01
1.596250000000000e+00  1.0037952484184898e+00 -7.3088861588182937e+01
1.601875000000000e+00  1.0037730032071193e+00 -7.3419552429222861e+01
1.607500000000000e+00  1.0015977615987133e+00 -7.3655580804646902e+01
1.613125000000000e+00  1.0024456315803947e+00 -7.4014831675323890e+01
1.618750000000000e+00  1.0021438956134525e+00 -7.4100619790565290e+01
1.624375000000000e+00  1.0036880983455041e+00 -7.4314002177223699e+01
1.630000000000000e+00  1.0018139662597720e+00 -7.4660688141766670e+01
1.635625000000000e+00  1.0035778094692696e+00 -7.4901358281362292e+01
1.641250000000000e+00  1.0030719039656102e+00 -7.5171438392292103e+01
1.646875000000000e+00  1.0023476235789841e+00 -7.5376924345735489e+01
1.652500000000000e+00  1.0037651245765391e+00 -7.5684067234142617e+01
1.658125000000000e+00  1.0033833862062700e+00 -7.5919378230871743e+01
1.663750000000000e+00  1.0048601710527874e+00 -7.6128770216678589e+01
1.669375000000000e+00  1.0040116723254389e+00 -7.6452040613418362e+01
1.675000000000000e+00  1.0044651229226695e+00 -7.6665884857921071e+01
1.680625000000000e+00  1.0032237141010505e+00 -7.6883629794563973e+01
1.686250000000000e+00  1.0035010106235360e+00 -7.7062586242180302e+01
1.691875000000000e+00  1.0036345310825248e+00 -7.7439445711076630e+01
1.697500000000000e+00  1.0036009758527755e+00 -7.7674528790278302e+01
1.703125000000000e+00  1.0031368149450790e+00 -7.7879190424101765e+01
1.708750000000000e+00  1.0036608195592358e+00 -7.8191915330922839e+01
1.714375000000000e+00  1.0035725977944892e+00 -7.8439946794924268e+01
1.720000000000000e+00  1.0029046985072321e+00 -7.8698957483939949e+01
1.725625000000000e+00  1.0040972041933502e+00 -7.8911370041916285e+01
1.731250000000000e+00  1.0033441985177396e+00 -7.9151464287603446e+01
1.736875000000000e+00  1.0044055042399973e+00 -7.9450069700797272e+01
1.742500000000000e+00  1.0037258784905532e+00 -7.9777578424097726e+01
1.748125000000000e+00  1.0034915433023295e+00 -8.0061868693165223e+01
1.753750000000000e+00  1.0055662644723224e+00 -8.0255527795939074e+01
1.759375000000000e+00  1.0043500640995529e+00 -8.0561433327683929e+01
1.765000000000000e+00  1.0028747666131759e+00 -8.0849535276144707e+01
1.770625000000000e+00  1.0042729672761852e+00 -8.0968176631767108e+01
1.776250000000000e+00  1.0025320077191220e+00 -8.1231295328127587e+01
1.781875000000000e+00  1.0024544742436670e+00 -8.1410586097424726e+01
1.787500000000000e+00  1.0057648549529643e+00 -8.1751883848753266e+01
1.793125000000000e+00  1.0069570903239773e+00 -8.2014293431081839e+01
1.798750000000000e+00  1.0048635238115993e+00 -8.2190790817185359e+01
1.804375000000000e+00  1.0030506380540796e+00 -8.2489679104525223e+01
1.810000000000000e+00  1.0036343826105278e+00 -8.2803240791154735e+01
1.815625000000000e+00  1.0043537055561038e+00 -8.2952289524520751e+01
1.821250000000000e+00  1.0050458210521396e+00 -8.3293618859694547e+01
1.826875000000000e+00  1.0038212023975894e+00 -8.3534390982292337e+01
1.832500000000000e+00  1.0063078186205126e+00 -8.3770716294987039e+01
1.838125000000000e+00  1.0056784791222380e+00 -8.4074537018870771e+01
1.843750000000000e+00  1.0030422574675402e+00 -8.4349770041678966e+01
1.849375000000000e+00  1.0081602446590849e+00 -8.4622481986304024e+01
1.855000000000000e+00  1.0045274415673069e+00 -8.4669412476334273e+01
1.860625000000000e+00  1.0043383329003195e+00 -8.5021511709573957e+01
1.866250000000000e+00  1.0008454869676271e+00 -8.5398563237385702e+01
1.871875000000000e+00  1.0029226509932005e+00 -8.5556767477020074e+01
1.877500000000000e+00  1.0049597411371549e+00 -8.5750752273812978e+01
1.883125000000000e+00  1.0044209036844274e+00 -8.5884616217583442e+01
1.888750000000000e+00  1.0088936529012640e+00 -8.6232961481766736e+01
1.894375000000000e+00  1.0018945940853803e+00 -8.6591316352778719e+01
1.900000000000000e+00  1.0066763957739782e+00 -8.6948505058756851e+01
1.905625000000000e+00  1.0056153251349698e+00 -8.6906974294088414e+01
1.911250000000000e+00  1.0076416410468758e+00 -8.7309345548786752e+01
1.916875000000000e+00  1.0063579101632389e+00 -8.7462447273944107e+01
1.922500000000000e+00  1.0047808095841881e+00 -8.7782420346653467e+01
1.928125000000000e+00  1.0061963988919507e+00 -8.8157656333061439e+01
1.933750000000000e+00  1.0038782331067626e+00 -8.8264928492621507e+01
1.939375000000000e+00  1.0055598303676261e+00 -8.8441788778077694e+01
1.945000000000000e+00  1.0042962771265185e+00 -8.8836899786613671e+01
1.950625000000000e+00  1.0056774919375935e+00 -8.9102816212739185e+01
1.956250000000000e+00  1.0050827676374516e+00 -8.9286710312213515e+01
1.961875000000000e+00  1.0065388227240255e+00 -8.9770693029050790e+01
1.967500000000000e+00  1.0057477222435087e+00 -8.9739218728617274e+01
1.973125000000000e+00  1.0064089153510947e+00 -9.0038222662450650e+01
1.978750000000000e+00  1.0049170959971128e+00 -9.0473277987542076e+01
1.984375000000000e+00  1.0061086142174047e+00 -9.0656945202943490e+01
1.990000000000000e+00  1.0060446151972731e+00 -9.0900332835515968e+01
1.995625000000000e+00  1.0087711373257124e+00 -9.1213418339735114e+01
2.001250000000000e+00  1.0061183633058182e+00 -9.1300057276189918e+01
2.006875000000000e+00  1.0074885609192723e+00 -9.1631620402053230e+01
2.012500000000000e+00  1.0054912171154524e+00 -9.1993272341749289e+01
2.018125000000000e+00  1.0078092471521209e+00 -9.2179660007013922e+01
2.023750000000000e+00  1.0058182532043367e+00 -9.2389273101790948e+01
2.029375000000000e+00  1.0076653203025119e+00 -9.2791349650385769e+01
2.035000000000000e+00  1.0049854111264955e+00 -9.2871962486992771e+01
2.040625000000000e+00  1.0065093671720033e+00 -9.3003291652287615e+01
2.046250000000000e+00  1.0068417760788861e+00 -9.3461505511971041e+01
2.051875000000000e+00  1.0070074917614980e+00 -9.3614026681108243e+01
2.057500000000000e+00  1.0087350810583289e+00 -9.3840594570797975e+01
2.063125000000000e+00  1.0067093674351131e+00 -9.4276682852073506e+01
2.068750000000000e+00  1.0085576466865969e+00 -9.4599221680892370e+01
2.074375000000000e+00  1.0068515957670177e+00 -9.4561734322422950e+01
2.080000000000000e+00  1.0065962767981282e+00 -9.4932421256989471e+01
2.085625000000000e+00  1.0064200403500274e+00 -9.5173980623769978e+01
2.091250000000000e+00  1.0021125748380204e+00 -9.5427594158298859e+01
2.096875000000000e+00  1.0081920814574419e+00 -9.5753735982249580e+01
2.102500000000000e+00  1.0094321436251881e+00 -9.5931213667429404e+01
2.108125000000000e+00  1.0071601179278808e+00 -9.6161125044115693e+01
2.113750000000000e+00  1.0068631783619604e+00 -9.6512407272174428e+01
2.119375000000000e+00  1.0074337850238664e+00 -9.6582077284911293e+01
2.125000000000000e+00  1.0080732998772914e+00 -9.6976138361133565e+01
2.130625000000000e+00  1.0082993034000973e+00 -9.7247189342864488e+01
2.136250000000000e+00  1.0057720405663080e+00 -9.7595102900199706e+01
2.141875000000000e+00  1.0075225209595460e+00 -9.7606341065607324e+01
2.147500000000000e+00  1.0078692346320688e+00 -9.8080051242308400e+01
2.153125000000000e+00  1.0076461514241837e+00 -9.8236116456260632e+01
2.158750000000000e+00  1.0079648582857617e+00 -9.8549121668448237e+01
2.164375000000000e+00  1.0065853961571760e+00 -9.8726087860526718e+01
2.170000000000000e+00  1.0078453254528896e+00 -9.8960901386667004e+01
2.175625000000000e+00  1.0079926858294361e+00 -9.9275816138439296e+01
2.181250000000000e+00  1.0113789492228151e+00 -9.9440721323862448e+01
2.186875000000000e+00  1.0082168248578558e+00 -9.9811873618688011e+01
2.192500000000000e+00  1.0067082591459735e+00 -1.0000657119727208e+02
2.198125000000000e+00  1.0095443132579998e+00 -1.0031600031886047e+02
2.203750000000000e+00  1.0072842939991986e+00 -1.0063245141512009e+02
2.209375000000000e+00  1.0091795004196098e+00 -1.0080974716747060e+02
2.215000000000000e+00  1.0093436955241988e+00 -1.0104085723996630e+02
2.220625000000000e+00  1.0068429600704754e+00 -1.0134126620675026e+02
2.226250000000000e+00  1.0076757031386490e+00 -1.0152296237731633e+02
2.231875000000000e+00  1.0103774237221999e+00 -1.0188758849321677e+02
2.237500000000000e+00  1.0097774969764386e+00 -1.0194430750445642e+02
2.243125000000000e+00  1.0090356914896617e+00 -1.0224386490247262e+02
2.248750000000000e+00  1.0091829666429937e+00 -1.0260397924764311e+02
2.254375000000000e+00  1.0091636180244286e+00 -1.0275695824017016e+02
2.260000000000000e+00  1.0109351245816842e+00 -1.0317792822830107e+02
2.265625000000000e+00  1.0109771787058539e+00 -1.0330885293587660e+02
2.271250000000000e+00  1.0081414214550979e+00 -1.0360380530303210e+02
2.276875000000000e+00  1.0082359256160496e+00 -1.0385958435430835e+02
2.282500000000000e+00  1.0092992775595615e+00 -1.0415893411521809e+02
2.288125000000000e+00  1.0124453730034229e+00 -1.0443835954320789e+02
2.293750000000000e+00  1.0115132988544835e+00 -1.0463410972988054e+02
2.299375000000000e+00  1.0104657297250002e+00 -1.0491090742563743e+02
2.305000000000000e+00  1.0093342470203408e+00 -1.0521865361362124e+02
2.310625000000000e+00  1.0114079443535653e+00 -1.0547710022461690e+02
2.316250000000000e+00  1.0097110371988258e+00 -1.0564758270064016e+02
2.321875000000000e+00  1.0098735707357072e+00 -1.0597250859187366e+02
2.327500000000000e+00  1.0095579018533878e+00 -1.0608575997860997e+02
2.333125000000000e+00  1.0115771139265968e+00 -1.0647772183363631e+02
2.338750000000000e+00  1.0126398672819059e+00 -1.0664367380204762e+02
2.344375000000000e+00  1.0118659218044566e+00 -1.0695281352815073e+02
2.350000000000000e+00  1.0107002231160824e+00 -1.0710323774252950e+02
2.355625000000000e+00  1.0099041638990642e+00 -1.0737819344500295e+02
2.361250000000000e+00  1.0101672799613841e+00 -1.0776933436961644e+02
2.366875000000000e+00  1.0117433408745911e+00 -1.0791137985717810e+02
2.372500000000000e+00  1.0124137306695307e+00 -1.0809523939491031e+02
2.378125000000000e+00  1.0108138515110989e+00 -1.0837258877360698e+02
2.383750000000000e+00  1.0128376657460285e+00 -1.0876796484900420e+02
2.389375000000000e+00  1.0126285733309539e+00 -1.0905307533467376e+02
2.395000000000000e+00  1.0126264028178067e+00 -1.0922126928210010e+02
2.400625000000000e+00  1.0109364290688692e+00 -1.0945999069119026e+02
2.406250000000000e+00  1.0118123162205981e+00 -1.0979471389177739e+02
2.411875000000000e+00  1.0116530584858197e+00 -1.1011423413622251e+02
2.417500000000000e+00  1.0105061720829940e+00 -1.1027818388930123e+02
2.423125000000000e+00  1.0111378139632263e+00 -1.1049370738425732e+02
2.428750000000000e+00  1.0121787527783430e+00 -1.1074852797017319e+02
2.434375000000000e+00  1.0123501302480085e+00 -1.1107396865677009e+02
2.440000000000000e+00  1.0115932346237919e+00 -1.1123135297733110e+02
2.445625000000000e+00  1.0116241293002772e+00 -1.1169870137818343e+02
2.451250000000000e+00  1.0118265720486703e+00 -1.1182066339365619e+02
2.456875000000000e+00  1.0111179298394677e+00 -1.1198958810821679e+02
2.462500000000000e+00  1.0111909782180792e+00 -1.1233893902733908e+02
2.468125000000000e+00  1.0107528980811777e+00 -1.1271248260257553e+02
2.473750000000000e+00  1.0115567265387930e+00 -1.1298977765108253e+02
2.479375000000000e+00  1.0090830320122395e+00 -1.1310211927404686e+02
2.485000000000000e+00  1.0111286051240613e+00 -1.1334618364291252e+02
2.490625000000000e+00  1.0101168149079061e+00 -1.1360499477789196e+02
2.496250000000000e+00  1.0140131576153972e+00 -1.1377234881136474e+02
2.501875000000000e+00  1.0128382119396377e+00 -1.1407362024590375e+02
2.507500000000000e+00  1.0155500402664615e+00 -1.1440548154245860e+02
2.513125000000000e+00  1.0121540197392445e+00 -1.1468271798183791e+02
2.518750000000000e+00  1.0114426291288032e+00 -1.1488404895237986e+02
2.524375000000000e+00  1.0118465931953564e+00 -1.1525115815258006e+02
2.530000000000000e+00  1.0121326354786919e+00 -1.1535817306167813e+02
2.535625000000000e+00  1.0120769017765616e+00 -1.1570430379844642e+02
2.541250000000000e+00  1.0131749109102957e+00 -1.1591209650753785e+02
2.546875000000000e+00  1.0136362190811181e+00 -1.1608366316137479e+02
2.552500000000000e+00  1.0147511464216097e+00 -1.1639860167257071e+02
2.558125000000000e+00  1.0121272175702043e+00 -1.1663458485594276e+02
2.563750000000000e+00  1.0117998808656410e+00 -1.1664388151352374e+02
2.569375000000000e+00  1.0121595976076132e+00 -1.1702859914961465e+02
2.575000000000000e+00  1.0119126955106683e+00 -1.1752177255258025e+02
2.580625000000000e+00  1.0143453404156053e+00 -1.1753181413332352e+02
2.586250000000000e+00  1.0137475064531556e+00 -1.1785333324598427e+02
2.591875000000000e+00  1.0137186682747616e+00 -1.1810028771140833e+02
2.597500000000000e+00  1.0119310564986104e+00 -1.1834265215481201e+02
