# GHz S MA R 50

1.000000000000000e+00  9.8722213415075599e-01 -1.1066466975464458e+02
1.004375000000000e+00  9.8562378473651424e-01 -1.1056891857575965e+02
1.008750000000000e+00  9.8534713626922243e-01 -1.1080257765597827e+02
1.013125000000000e+00  9.8804375278887191e-01 -1.1094958814229307e+02
1.017500000000000e+00  9.8462381558073420e-01 -1.1077677784169778e+02
1.021875000000000e+00  9.8434317675497862e-01 -1.1084378681538431e+02
1.026250000000000e+00  9.8362416297260957e-01 -1.1078366004346431e+02
1.030625000000000e+00  9.8412768960346231e-01 -1.1061489520071083e+02
1.035000000000000e+00  9.8622980288698292e-01 -1.1068262470719441e+02
1.039375000000000e+00  9.8213120401733256e-01 -1.1102447327994616e+02
1.043750000000000e+00  9.8485594355696571e-01 -1.1129665313007098e+02
1.048125000000000e+00  9.8728026002347014e-01 -1.1211088406475349e+02
1.052500000000000e+00  9.7875815610498751e-01 -1.1254950524121635e+02
1.056875000000000e+00  9.8065266651004401e-01 -1.1339619044739725e+02
1.061250000000000e+00  9.8602736202611474e-01 -1.1394232315416423e+02
1.065625000000000e+00  9.8770302699167034e-01 -1.1424235538988371e+02
1.070000000000000e+00  9.9057235912597674e-01 -1.1471830626322144e+02
1.074375000000000e+00  9.8687537091219835e-01 -1.1503401944477419e+02
1.078750000000000e+00  9.9017769088875496e-01 -1.1544831273804175e+02
1.083125000000000e+00  9.8606274499991087e-01 -1.1581007602097276e+02
1.087500000000000e+00  9.7999766989961301e-01 -1.1596978762373280e+02
1.091875000000000e+00  9.8205168576854285e-01 -1.1621071448284090e+02
1.096250000000000e+00  9.8358984791903525e-01 -1.1647998486696810e+02
1.100625000000000e+00  9.8692380083882236e-01 -1.1691684626531618e+02
1.105000000000000e+00  9.8888267764519711e-01 -1.1772675248482813e+02
1.109375000000000e+00  9.8420257893758389e-01 -1.1839990454730939e+02
1.113750000000000e+00  9.9061204453549678e-01 -1.1907449132276538e+02
1.118125000000000e+00  9.8836881264744458e-01 -1.1956494799393279e+02
1.122500000000000e+00  9.8494620676199685e-01 -1.1979244299025628e+02
1.126875000000000e+00  9.8575888391514810e-01 -1.2015850645004478e+02
1.131250000000000e+00  9.8835543968461137e-01 -1.2051774940071871e+02
1.135625000000000e+00  9.9345886540035011e-01 -1.2113278972934914e+02
1.140000000000000e+00  9.8856096917339753e-01 -1.2166115256813815e+02
1.144375000000000e+00  9.9395417168076572e-01 -1.2232331791919536e+02
1.148750000000000e+00  1.0030852534242289e+00 -1.2297549079790585e+02
1.153125000000000e+00  1.0107046636351655e+00 -1.2332492337510033e+02
1.157500000000000e+00  1.0096384854766547e+00 -1.2405799894810835e+02
1.161875000000000e+00  1.0148004820889354e+00 -1.2479595433266030e+02
1.166250000000000e+00  1.0191644807248146e+00 -1.2580373188733860e+02
1.170625000000000e+00  1.0152132896253363e+00 -1.2662291530666573e+02
1.175000000000000e+00  1.0038543318522744e+00 -1.2701028806685282e+02
1.179375000000000e+00  9.9722462673313916e-01 -1.2728475446918122e+02
1.183750000000000e+00  1.0042532871132062e+00 -1.2758621428013744e+02
1.188125000000000e+00  9.9381210673638531e-01 -1.2765215808106062e+02
1.192500000000000e+00  9.9642025047020633e-01 -1.2811415588053882e+02
1.196875000000000e+00  1.0072669032807797e+00 -1.2886069685897422e+02
1.201250000000000e+00  1.0047361940720392e+00 -1.2951189198958366e+02
1.205625000000000e+00  9.9612704623428405e-01 -1.2984827294211669e+02
1.210000000000000e+00  9.8700461888479585e-01 -1.3018028665774318e+02
1.214375000000000e+00  9.8821562004423014e-01 -1.3085385711495971e+02
1.218750000000000e+00  9.8012939646282404e-01 -1.3113826358399507e+02
1.223125000000000e+00  9.8012437224790672e-01 -1.3147575726116244e+02
1.227500000000000e+00  9.6867956638013153e-01 -1.3244768661485708e+02
1.231875000000000e+00  9.6771397970955830e-01 -1.3216758200564396e+02
1.236250000000000e+00  9.6680080913937749e-01 -1.3239023715065684e+02
1.240625000000000e+00  9.6508066699149420e-01 -1.3229708891602095e+02
1.245000000000000e+00  9.6673937010010613e-01 -1.3244256085179802e+02
1.249375000000000e+00  9.8080125476626623e-01 -1.3328911398412617e+02
1.253750000000000e+00  9.8625429509757279e-01 -1.3386539222309233e+02
1.258125000000000e+00  9.7354542733230109e-01 -1.3433704863064028e+02
1.262500000000000e+00  9.8474012379310250e-01 -1.3466225349709038e+02
1.266875000000000e+00  9.8058069443054152e-01 -1.3492308618976475e+02
1.271250000000000e+00  9.6937305128432305e-01 -1.3531248918758507e+02
1.275625000000000e+00  9.6854995577149283e-01 -1.3547232650495079e+02
1.280000000000000e+00  9.7651111515278310e-01 -1.3570778827223418e+02
1.284375000000000e+00  9.8037473543206832e-01 -1.3628900060156383e+02
1.288750000000000e+00  9.8791728272225099e-01 -1.3636678733379611e+02
1.293125000000000e+00  9.8590437218316362e-01 -1.3699688886643958e+02
1.297500000000000e+00  9.8399196184935345e-01 -1.3765973152864049e+02
1.301875000000000e+00  9.8643465552677922e-01 -1.3755151040836444e+02
1.306250000000000e+00  9.8885794727002307e-01 -1.3827013126856698e+02
1.310625000000000e+00  9.9130685887106473e-01 -1.3898564688904963e+02
1.315000000000000e+00  9.8929658570895784e-01 -1.3971195525434666e+02
1.319375000000000e+00  9.8713698741015532e-01 -1.4043777892571890e+02
1.323750000000000e+00  9.8879847825616929e-01 -1.4071631644467794e+02
1.328125000000000e+00  9.8788133123226274e-01 -1.4087385904770062e+02
1.332500000000000e+00  9.9440396630106542e-01 -1.4122403121558659e+02
1.336875000000000e+00  9.9061618541156338e-01 -1.4194776000747353e+02
1.341250000000000e+00  9.9342742220703928e-01 -1.4216376339790114e+02
1.345625000000000e+00  9.9772866144247696e-01 -1.4260504331816540e+02
1.350000000000000e+00  1.0053610752564386e+00 -1.4336280854555824e+02
1.354375000000000e+00  9.9935564593915704e-01 -1.4386392806951852e+02
1.358750000000000e+00  9.9582077147338166e-01 -1.4415839303300569e+02
1.363125000000000e+00  9.9833985309737028e-01 -1.4448899384925775e+02
1.367500000000000e+00  9.9873069023890049e-01 -1.4462961640499253e+02
1.371875000000000e+00  9.9799680537587943e-01 -1.4506051272349848e+02
1.376250000000000e+00  9.9527247829758592e-01 -1.4605509567159064e+02
1.380625000000000e+00  9.9760795252686307e-01 -1.4638139174251057e+02
1.385000000000000e+00  9.9567598483247910e-01 -1.4677264506253263e+02
1.389375000000000e+00  1.0021608580691490e+00 -1.4705468920100847e+02
1.393750000000000e+00  1.0060578312507200e+00 -1.4737191516831888e+02
1.398125000000000e+00  9.9544609743701062e-01 -1.4785348346129405e+02
1.402500000000000e+00  9.9188523118704186e-01 -1.4850475124468801e+02
1.406875000000000e+00  9.9703943296283881e-01 -1.4871683408472444e+02
1.411250000000000e+00  9.9277010890275852e-01 -1.4912474531594918e+02
1.415625000000000e+00  9.8988268793712775e-01 -1.4985964924859039e+02
1.420000000000000e+00  9.9047799518243373e-01 -1.5006111691204620e+02
1.424375000000000e+00  9.8827847944029612e-01 -1.5044428542393240e+02
1.428750000000000e+00  9.9400621388019672e-01 -1.5098998936566332e+02
1.433125000000000e+00  9.9298431707300605e-01 -1.5162184317724135e+02
1.437500000000000e+00  9.8811517703483875e-01 -1.5209978512876810e+02
1.441875000000000e+00  9.9348506081736243e-01 -1.5257934633331840e+02
1.446250000000000e+00  9.9358695750007597e-01 -1.5305717992669304e+02
1.450625000000000e+00  9.9499004214362252e-01 -1.5324790357051353e+02
1.455000000000000e+00  9.9571264587166475e-01 -1.5360850761156317e+02
1.459375000000000e+00  9.8998219149293998e-01 -1.5407002417052388e+02
1.463750000000000e+00  9.8393791765983052e-01 -1.5458738606437177e+02
1.468125000000000e+00  9.7919804320089343e-01 -1.5479745072701598e+02
1.472500000000000e+00  9.8257528182333653e-01 -1.5516296389069552e+02
1.476875000000000e+00  9.8516585071583629e-01 -1.5537919154132322e+02
1.481250000000000e+00  9.8050700356226805e-01 -1.5570127013523842e+02
1.485625000000000e+00  9.7742052912533683e-01 -1.5595105157085874e+02
1.490000000000000e+00  9.7786084079999824e-01 -1.5626372995662368e+02
1.494375000000000e+00  9.7687222146928354e-01 -1.5713092157217005e+02
1.498750000000000e+00  9.7100773297650012e-01 -1.5754718816751330e+02
1.503125000000000e+00  9.6411236994540472e-01 -1.5808913700987367e+02
1.507500000000000e+00  9.7124907282591100e-01 -1.5851785359455002e+02
1.511875000000000e+00  9.7010900028568725e-01 -1.5920641827213964e+02
1.516250000000000e+00  9.6436792679477745e-01 -1.5943164652482332e+02
1.520625000000000e+00  9.5988377603463815e-01 -1.5992771736069474e+02
1.525000000000000e+00  9.5748306284723228e-01 -1.6033548872278837e+02
1.529375000000000e+00  9.5600704984270779e-01 -1.6093981238411305e+02
1.533750000000000e+00  9.5760601894191988e-01 -1.6124112130076077e+02
1.538125000000000e+00  9.5874949179527713e-01 -1.6183149833465211e+02
1.542500000000000e+00  9.6116570005795254e-01 -1.6210639167498320e+02
1.546875000000000e+00  9.6238918382539440e-01 -1.6238552553835740e+02
1.551250000000000e+00  9.6511696072797826e-01 -1.6301182380902603e+02
1.555625000000000e+00  9.6868948689782530e-01 -1.6395170809572102e+02
1.560000000000000e+00  9.7128768806122479e-01 -1.6435504921411936e+02
1.564375000000000e+00  9.7680510034799639e-01 -1.6506719913599994e+02
1.568750000000000e+00  9.7560166631702472e-01 -1.6517260277943541e+02
1.573125000000000e+00  9.7825272201546409e-01 -1.6566983678150680e+02
1.577500000000000e+00  9.8056062756117746e-01 -1.6624098224550636e+02
1.581875000000000e+00  9.6897849341590281e-01 -1.6654497529042277e+02
1.586250000000000e+00  9.6606062203149667e-01 -1.6697960742122572e+02
1.590625000000000e+00  9.6874234221492750e-01 -1.6776720385328673e+02
1.595000000000000e+00  9.6831829744474263e-01 -1.6783196825162693e+02
1.599375000000000e+00  9.6738156065002068e-01 -1.6817110591455940e+02
1.603750000000000e+00  9.7038022519456890e-01 -1.6852645156517127e+02
1.608125000000000e+00  9.7195693857750898e-01 -1.6898184138917833e+02
1.612500000000000e+00  9.7151942728642982e-01 -1.6925906024598501e+02
1.616875000000000e+00  9.7248717163672560e-01 -1.6992431934534810e+02
1.621250000000000e+00  9.7103259954011001e-01 -1.7061612618193371e+02
1.625625000000000e+00  9.6627266476353846e-01 -1.7110470268726311e+02
1.630000000000000e+00  9.5806388467291959e-01 -1.7157436828234660e+02
1.634375000000000e+00  9.5775864361822183e-01 -1.7206043879384902e+02
1.638750000000000e+00  9.5369973843069478e-01 -1.7220411685870081e+02
1.643125000000000e+00  9.5722434859534478e-01 -1.7277098799335781e+02
1.647500000000000e+00  9.5330132989364114e-01 -1.7289636886920340e+02
1.651875000000000e+00  9.4909448654068607e-01 -1.7274587498803521e+02
1.656250000000000e+00  9.4908061513767039e-01 -1.7323580972822597e+02
1.660625000000000e+00  9.4979613408342445e-01 -1.7368379754404316e+02
1.665000000000000e+00  9.4501978109549012e-01 -1.7405743097605364e+02
1.669375000000000e+00  9.4929182738722684e-01 -1.7459328456263557e+02
1.673750000000000e+00  9.5571287004399375e-01 -1.7496591086800291e+02
1.678125000000000e+00  9.5031131112787326e-01 -1.7552805439562647e+02
1.682500000000000e+00  9.4918346977210311e-01 -1.7597160692586721e+02
1.686875000000000e+00  9.4835146481560040e-01 -1.7660365707376533e+02
1.691250000000000e+00  9.4631947132929151e-01 -1.7705344407457119e+02
1.695625000000000e+00  9.4895226854898063e-01 -1.7734941257307264e+02
1.700000000000000e+00  9.4750792806162631e-01 -1.7784591411577051e+02
1.704375000000000e+00  9.5023479605068495e-01 -1.7793127651729748e+02
1.708750000000000e+00  9.5364444337978282e-01 -1.7828356633108675e+02
1.713125000000000e+00  9.5598591916635889e-01 -1.7890251394661951e+02
1.717500000000000e+00  9.5111575000227200e-01 -1.7932529267417729e+02
1.721875000000000e+00  9.5925903514487909e-01  1.7999635441864058e+02
1.726250000000000e+00  9.6048871130297298e-01  1.7930820951997453e+02
1.730625000000000e+00  9.6830230123835070e-01  1.7868709243323320e+02
1.735000000000000e+00  9.6851190690618294e-01  1.7847788876193897e+02
1.739375000000000e+00  9.7380773337046989e-01  1.7798496838037013e+02
1.743750000000000e+00  9.7544901548557306e-01  1.7745555377402425e+02
1.748125000000000e+00  9.7357332943236641e-01  1.7688781433855306e+02
1.752500000000000e+00  9.7291037005160874e-01  1.7656346337695518e+02
1.756875000000000e+00  9.6946642758488721e-01  1.7607590930361914e+02
1.761250000000000e+00  9.7078836957094328e-01  1.7559908438352500e+02
1.765625000000000e+00  9.7445496404292775e-01  1.7503235778209159e+02
1.770000000000000e+00  9.7151013145769127e-01  1.7435387828742572e+02
1.774375000000000e+00  9.7564984829180268e-01  1.7389868854441065e+02
1.778750000000000e+00  9.8056557593278670e-01  1.7325828573341698e+02
1.783125000000000e+00  9.7753815789042720e-01  1.7288053019314410e+02
1.787500000000000e+00  9.7580596468377134e-01  1.7250470338186335e+02
1.791875000000000e+00  9.8082630127536152e-01  1.7211696935174541e+02
1.796250000000000e+00  9.7736574374257446e-01  1.7167685380856381e+02
1.800625000000000e+00  9.7873480087721909e-01  1.7134538485957680e+02
1.805000000000000e+00  9.7650673754751793e-01  1.7106637751982328e+02
1.809375000000000e+00  9.7998716915635908e-01  1.7052359811511170e+02
1.813750000000000e+00  9.7466545908753321e-01  1.7032945804378818e+02
1.818125000000000e+00  9.7302927817149676e-01  1.7001211094048747e+02
1.822500000000000e+00  9.7055897035687133e-01  1.6948293537793990e+02
1.826875000000000e+00  9.7372933878252976e-01  1.6899117107995122e+02
1.831250000000000e+00  9.7596243542181516e-01  1.6856919942852875e+02
1.835625000000000e+00  9.7776946916590635e-01  1.6827482191055933e+02
1.840000000000000e+00  9.7665651441073797e-01  1.6783121837856271e+02
1.844375000000000e+00  9.7721982005536101e-01  1.6747934346664488e+02
1.848750000000000e+00  9.7473526191322524e-01  1.6729432760370725e+02
1.853125000000000e+00  9.7250867446046796e-01  1.6700470939534537e+02
1.857500000000000e+00  9.7338085348425640e-01  1.6648875563526389e+02
1.861875000000000e+00  9.7314990061777840e-01  1.6583781566279148e+02
1.866250000000000e+00  9.7111341087497105e-01  1.6540783499052603e+02
1.870625000000000e+00  9.6700166257678488e-01  1.6504889835446650e+02
1.875000000000000e+00  9.6521744508689356e-01  1.6435196198119482e+02
1.879375000000000e+00  9.6298702929656876e-01  1.6402791719967757e+02
1.883750000000000e+00  9.5924000964969136e-01  1.6357085545614308e+02
1.888125000000000e+00  9.6174373232081700e-01  1.6297894221009554e+02
1.892500000000000e+00  9.5920315711643345e-01  1.6271687706312110e+02
1.896875000000000e+00  9.6029391194268787e-01  1.6256353169915698e+02
1.901250000000000e+00  9.5484153083271228e-01  1.6229934950510574e+02
1.905625000000000e+00  9.5481300964961124e-01  1.6202370412534029e+02
1.910000000000000e+00  9.5239911276407330e-01  1.6151454168233840e+02
1.914375000000000e+00  9.5103451737710720e-01  1.6123481309147104e+02
1.918750000000000e+00  9.4936291655559824e-01  1.6073098830241418e+02
1.923125000000000e+00  9.5164477696525729e-01  1.6022740084570833e+02
1.927500000000000e+00  9.5020646297502775e-01  1.5951804345934642e+02
1.931875000000000e+00  9.4981283907615366e-01  1.5946593203372944e+02
1.936250000000000e+00  9.5231754659665091e-01  1.5952432612346249e+02
1.940625000000000e+00  9.4886437421823489e-01  1.5907600449992776e+02
1.945000000000000e+00  9.4704501591649892e-01  1.5881230222545008e+02
1.949375000000000e+00  9.4843541110529872e-01  1.5859160741906112e+02
1.953750000000000e+00  9.5067252626329835e-01  1.5803294293239242e+02
1.958125000000000e+00  9.5277567426343812e-01  1.5751904527498178e+02
1.962500000000000e+00  9.5129009242619411e-01  1.5708547856920794e+02
1.966875000000000e+00  9.5403590654834725e-01  1.5646328795645488e+02
1.971250000000000e+00  9.5110384689998506e-01  1.5564383507108161e+02
1.975625000000000e+00  9.4993091386161721e-01  1.5542168421834887e+02
1.980000000000000e+00  9.4775068016230346e-01  1.5506469231488626e+02
1.984375000000000e+00  9.5019481262946626e-01  1.5481435132331586e+02
1.988750000000000e+00  9.5022835923975102e-01  1.5428341443632931e+02
1.993125000000000e+00  9.4817725537754394e-01  1.5390586017472992e+02
1.997500000000000e+00  9.4919611713522223e-01  1.5343659646068815e+02
2.001875000000000e+00  9.5082222594386034e-01  1.5298508594340430e+02
2.006250000000000e+00  9.4751464873945024e-01  1.5229268447588100e+02
2.010625000000000e+00  9.4445999774424938e-01  1.5143918569065264e+02
2.015000000000000e+00  9.4368396036137447e-01  1.5096735189134415e+02
2.019375000000000e+00  9.4766664815750246e-01  1.5036062092189263e+02
2.023750000000000e+00  9.4414551530059987e-01  1.4992272862482795e+02
2.028125000000000e+00  9.3998901692480474e-01  1.4962292143446331e+02
2.032500000000000e+00  9.3903372844679489e-01  1.4921667033698219e+02
2.036875000000000e+00  9.4019888583864131e-01  1.4889909771060141e+02
2.041250000000000e+00  9.3744934263060342e-01  1.4860120414793104e+02
2.045625000000000e+00  9.3945478748483735e-01  1.4826312744759093e+02
2.050000000000000e+00  9.4400043948151802e-01  1.4755991915369799e+02
2.054375000000000e+00  9.4712532862705645e-01  1.4689006992314580e+02
2.058750000000000e+00  9.4421672611013352e-01  1.4638440523524116e+02
2.063125000000000e+00  9.3984770121976557e-01  1.4597401931722047e+02
2.067500000000000e+00  9.4066220327560857e-01  1.4561650632679999e+02
2.071875000000000e+00  9.3812804742130074e-01  1.4517517822503922e+02
2.076250000000000e+00  9.3278366969634163e-01  1.4488005816950692e+02
2.080625000000000e+00  9.3480250434880385e-01  1.4442383554393248e+02
2.085000000000000e+00  9.3467714432531157e-01  1.4394539393276574e+02
2.089375000000000e+00  9.3517446671496263e-01  1.4354331737025242e+02
2.093750000000000e+00  9.3056888634035650e-01  1.4299782143174306e+02
2.098125000000000e+00  9.3411342819338483e-01  1.4276284114543580e+02
2.102500000000000e+00  9.3369285753749975e-01  1.4222142928102792e+02
2.106875000000000e+00  9.3227532896807785e-01  1.4173943349342807e+02
2.111250000000000e+00  9.2818259504417144e-01  1.4131341925641718e+02
2.115625000000000e+00  9.2744196901508191e-01  1.4071390941051263e+02
2.120000000000000e+00  9.2478196872491436e-01  1.4042949439766701e+02
2.124375000000000e+00  9.2286224611345091e-01  1.3997803910689390e+02
2.128750000000000e+00  9.2007456613759153e-01  1.3974500507065324e+02
2.133125000000000e+00  9.1341454207900608e-01  1.3917819910584888e+02
2.137500000000000e+00  9.1427809565030926e-01  1.3874588895062809e+02
2.141875000000000e+00  9.1267466130925001e-01  1.3830186567443502e+02
2.146250000000000e+00  9.1244227779159082e-01  1.3790781012145007e+02
2.150625000000000e+00  9.0880184025228972e-01  1.3752040050141815e+02
2.155000000000000e+00  9.1075518142949863e-01  1.3698241949661698e+02
2.159375000000000e+00  9.0594934951833195e-01  1.3670346161005114e+02
2.163750000000000e+00  9.0402284779340059e-01  1.3632948527231486e+02
2.168125000000000e+00  9.0315995571522190e-01  1.3614042493376675e+02
2.172500000000000e+00  8.9995800028345285e-01  1.3554816964002029e+02
2.176875000000000e+00  9.0036012810965438e-01  1.3529249802309565e+02
2.181250000000000e+00  8.9825571646790414e-01  1.3506056343053990e+02
2.185625000000000e+00  8.9728467671533130e-01  1.3506200690391063e+02
2.190000000000000e+00  8.9636323251615180e-01  1.3477378643613901e+02
2.194375000000000e+00  8.9232315338700396e-01  1.3442219811563439e+02
2.198750000000000e+00  8.8763919449405404e-01  1.3459187563591252e+02
2.203125000000000e+00  8.8807111492417556e-01  1.3419526651567824e+02
2.207500000000000e+00  8.9027250418748638e-01  1.3410141984456530e+02
2.211875000000000e+00  8.8834440464781084e-01  1.3396444562244466e+02
2.216250000000000e+00  8.8758889117484241e-01  1.3352048755178473e+02
2.220625000000000e+00  8.8347156364530177e-01  1.3300114435918513e+02
2.225000000000000e+00  8.8647413713405321e-01  1.3277204713973393e+02
2.229375000000000e+00  8.8288067664150094e-01  1.3254572847508899e+02
2.233750000000000e+00  8.8416612390151128e-01  1.3225253757175065e+02
2.238125000000000e+00  8.8488140622310429e-01  1.3207989075959011e+02
2.242500000000000e+00  8.8656764538995969e-01  1.3176702506013487e+02
