# GHz S MA R 50

1.000000000000000e+00  9.9817365757446974e-01 -5.6713670387987619e+01
1.004375000000000e+00  9.9816604264882169e-01 -5.6839025798665141e+01
1.008750000000000e+00  9.9812352479626820e-01 -5.6977527802932634e+01
1.013125000000000e+00  9.9810652405297284e-01 -5.7127201134756518e+01
1.017500000000000e+00  9.9803222544718861e-01 -5.7289090181787607e+01
1.021875000000000e+00  9.9795388928880913e-01 -5.7465111117707444e+01
1.026250000000000e+00  9.9802848300672109e-01 -5.7660894443606516e+01
1.030625000000000e+00  9.9799147870207250e-01 -5.7864615019425067e+01
1.035000000000000e+00  9.9786729606086000e-01 -5.8087486717867698e+01
1.039375000000000e+00  9.9786594228935532e-01 -5.8320406547040484e+01
1.043750000000000e+00  9.9786515830501754e-01 -5.8554818065595533e+01
1.048125000000000e+00  9.9781859133044171e-01 -5.8785003160186264e+01
1.052500000000000e+00  9.9783526610938178e-01 -5.9010699207687104e+01
1.056875000000000e+00  9.9778938377862825e-01 -5.9243913274481187e+01
1.061250000000000e+00  9.9775532627816732e-01 -5.9481054205096605e+01
1.065625000000000e+00  9.9769661957250522e-01 -5.9718836963879902e+01
1.070000000000000e+00  9.9778018755134734e-01 -5.9954724757176756e+01
1.074375000000000e+00  9.9776317069046316e-01 -6.0198821297139432e+01
1.078750000000000e+00  9.9772546486269620e-01 -6.0425539136428782e+01
1.083125000000000e+00  9.9781813165121980e-01 -6.0662005991733963e+01
1.087500000000000e+00  9.9774692128224884e-01 -6.0902671780532309e+01
1.091875000000000e+00  9.9773477360681073e-01 -6.1142678576919224e+01
1.096250000000000e+00  9.9764514842611540e-01 -6.1381707213585727e+01
1.100625000000000e+00  9.9739945281752296e-01 -6.1613399475176934e+01
1.105000000000000e+00  9.9719320655141508e-01 -6.1853868143889976e+01
1.109375000000000e+00  9.9706166914687844e-01 -6.2088233010328011e+01
1.113750000000000e+00  9.9698537769285445e-01 -6.2329759115976984e+01
1.118125000000000e+00  9.9698512314003984e-01 -6.2557248840572804e+01
1.122500000000000e+00  9.9704014006720776e-01 -6.2791819924807143e+01
1.126875000000000e+00  9.9692148710100148e-01 -6.3020792359799408e+01
1.131250000000000e+00  9.9696853830027199e-01 -6.3256118239223724e+01
1.135625000000000e+00  9.9697778778743418e-01 -6.3489852359380890e+01
1.140000000000000e+00  9.9704450271259537e-01 -6.3722782126924585e+01
1.144375000000000e+00  9.9700524101923194e-01 -6.3958093875218808e+01
1.148750000000000e+00  9.9724426489463791e-01 -6.4202631664864654e+01
1.153125000000000e+00  9.9726563361033804e-01 -6.4434739463285169e+01
1.157500000000000e+00  9.9721050304359360e-01 -6.4674007261304382e+01
1.161875000000000e+00  9.9728155933982920e-01 -6.4912351674231289e+01
1.166250000000000e+00  9.9748938390886532e-01 -6.5144178102282751e+01
1.170625000000000e+00  9.9774358848037736e-01 -6.5380550774926377e+01
1.175000000000000e+00  9.9781540203897046e-01 -6.5625077643676804e+01
1.179375000000000e+00  9.9798025741261653e-01 -6.5859971065840398e+01
1.183750000000000e+00  9.9820214666865148e-01 -6.6093891361862362e+01
1.188125000000000e+00  9.9807195482637501e-01 -6.6327988876542619e+01
1.192500000000000e+00  9.9808911618612672e-01 -6.6584488229980636e+01
1.196875000000000e+00  9.9816217568308430e-01 -6.6822800952447608e+01
1.201250000000000e+00  9.9821577583919396e-01 -6.7052574012527970e+01
1.205625000000000e+00  9.9823829183264301e-01 -6.7288781592581572e+01
1.210000000000000e+00  9.9812318515746956e-01 -6.7532678002085888e+01
1.214375000000000e+00  9.9822513692270276e-01 -6.7771831161394516e+01
1.218750000000000e+00  9.9817525631426973e-01 -6.7997562646624573e+01
1.223125000000000e+00  9.9801618991718943e-01 -6.8222340260483449e+01
1.227500000000000e+00  9.9815707755407568e-01 -6.8463054716654312e+01
1.231875000000000e+00  9.9824619075962862e-01 -6.8694624353794197e+01
1.236250000000000e+00  9.9837355530203731e-01 -6.8922880387373226e+01
1.240625000000000e+00  9.9829134074649195e-01 -6.9155518494174459e+01
1.245000000000000e+00  9.9817188062372708e-01 -6.9396389071818831e+01
1.249375000000000e+00  9.9821881130854118e-01 -6.9614322449402252e+01
1.253750000000000e+00  9.9826384918125277e-01 -6.9844949191155649e+01
1.258125000000000e+00  9.9822858707117312e-01 -7.0075407404864791e+01
1.262500000000000e+00  9.9838612057489584e-01 -7.0298345531273981e+01
1.266875000000000e+00  9.9851140038322095e-01 -7.0518391173295569e+01
1.271250000000000e+00  9.9850458317519264e-01 -7.0746564075112531e+01
1.275625000000000e+00  9.9854945426721331e-01 -7.0990263092089819e+01
1.280000000000000e+00  9.9877706316257808e-01 -7.1227900577658019e+01
1.284375000000000e+00  9.9899308399987441e-01 -7.1459334420716559e+01
1.288750000000000e+00  9.9890690997433229e-01 -7.1690150933552530e+01
1.293125000000000e+00  9.9903117360525207e-01 -7.1932003933867563e+01
1.297500000000000e+00  9.9906535400950069e-01 -7.2164449022079637e+01
1.301875000000000e+00  9.9902871112792635e-01 -7.2395286458596559e+01
1.306250000000000e+00  9.9894271498358700e-01 -7.2632296492759949e+01
1.310625000000000e+00  9.9887601635410639e-01 -7.2874877400496871e+01
1.315000000000000e+00  9.9890961702481351e-01 -7.3107944718446419e+01
1.319375000000000e+00  9.9886905198805065e-01 -7.3333954085904864e+01
1.323750000000000e+00  9.9877496325387949e-01 -7.3573411089610005e+01
1.328125000000000e+00  9.9860189210192396e-01 -7.3813126206756294e+01
1.332500000000000e+00  9.9865172855256557e-01 -7.4043540955747531e+01
1.336875000000000e+00  9.9862588269750019e-01 -7.4279721419516420e+01
1.341250000000000e+00  9.9857448369858570e-01 -7.4511600209767948e+01
1.345625000000000e+00  9.9862776795487240e-01 -7.4744881296942225e+01
1.350000000000000e+00  9.9868395193383930e-01 -7.4974297827715048e+01
1.354375000000000e+00  9.9850451322138700e-01 -7.5203493313491904e+01
1.358750000000000e+00  9.9845920451098558e-01 -7.5434529365375951e+01
1.363125000000000e+00  9.9859243102770723e-01 -7.5671576664867075e+01
1.367500000000000e+00  9.9866895082420615e-01 -7.5896662502567310e+01
1.371875000000000e+00  9.9876160607141296e-01 -7.6136146935717591e+01
1.376250000000000e+00  9.9869375484980372e-01 -7.6373108263148026e+01
1.380625000000000e+00  9.9886493833205925e-01 -7.6609529522715093e+01
1.385000000000000e+00  9.9891843318520801e-01 -7.6840465023151523e+01
1.389375000000000e+00  9.9902033921895850e-01 -7.7078978722757327e+01
1.393750000000000e+00  9.9913285421609355e-01 -7.7319146983650967e+01
1.398125000000000e+00  9.9937555161753755e-01 -7.7562473161516365e+01
1.402500000000000e+00  9.9943633603579352e-01 -7.7792460190199861e+01
1.406875000000000e+00  9.9940920165659552e-01 -7.8033669676113647e+01
1.411250000000000e+00  9.9940598296164318e-01 -7.8273174923898125e+01
1.415625000000000e+00  9.9945013381127534e-01 -7.8513025942335716e+01
1.420000000000000e+00  9.9954768145500761e-01 -7.8751477034483315e+01
1.424375000000000e+00  9.9935715145973136e-01 -7.8988253379401456e+01
1.428750000000000e+00  9.9940496209082685e-01 -7.9223968114743315e+01
1.433125000000000e+00  9.9943968322757104e-01 -7.9459336276034222e+01
1.437500000000000e+00  9.9932480579933014e-01 -7.9678721156581744e+01
1.441875000000000e+00  9.9920317915087564e-01 -7.9905044442450261e+01
1.446250000000000e+00  9.9901087278517398e-01 -8.0139441158973540e+01
1.450625000000000e+00  9.9907142956441763e-01 -8.0367345244308353e+01
1.455000000000000e+00  9.9894202880444971e-01 -8.0591489059263665e+01
1.459375000000000e+00  9.9889304362603659e-01 -8.0814518281569832e+01
1.463750000000000e+00  9.9889572693911677e-01 -8.1046756844632782e+01
1.468125000000000e+00  9.9898203151508858e-01 -8.1265415142410461e+01
1.472500000000000e+00  9.9888518011596228e-01 -8.1477024399500280e+01
1.476875000000000e+00  9.9893027791357347e-01 -8.1710974152335339e+01
1.481250000000000e+00  9.9907813430538306e-01 -8.1934992114002966e+01
1.485625000000000e+00  9.9906819579839812e-01 -8.2154040167009825e+01
1.490000000000000e+00  9.9889542625550443e-01 -8.2369960452154345e+01
1.494375000000000e+00  9.9871716927352827e-01 -8.2594633058571546e+01
1.498750000000000e+00  9.9884943225140510e-01 -8.2825044186376019e+01
1.503125000000000e+00  9.9882346516933151e-01 -8.3050645109667400e+01
1.507500000000000e+00  9.9869890246120907e-01 -8.3271956782005304e+01
1.511875000000000e+00  9.9861190333076688e-01 -8.3512853682437282e+01
1.516250000000000e+00  9.9859616062939971e-01 -8.3741794666741498e+01
1.520625000000000e+00  9.9863953965829266e-01 -8.3963958222898484e+01
1.525000000000000e+00  9.9857030774014166e-01 -8.4188873687545652e+01
1.529375000000000e+00  9.9857721076955952e-01 -8.4414157773428769e+01
1.533750000000000e+00  9.9852738598922441e-01 -8.4646081868920447e+01
1.538125000000000e+00  9.9842456401062318e-01 -8.4863601909201023e+01
1.542500000000000e+00  9.9819882891523837e-01 -8.5091034225279728e+01
1.546875000000000e+00  9.9813592899781967e-01 -8.5322772609452272e+01
1.551250000000000e+00  9.9808263481336901e-01 -8.5536934451385534e+01
1.555625000000000e+00  9.9793843484605282e-01 -8.5761210679749937e+01
1.560000000000000e+00  9.9783143426228083e-01 -8.5992663087023118e+01
1.564375000000000e+00  9.9794986285091725e-01 -8.6228465672501571e+01
1.568750000000000e+00  9.9800512194779389e-01 -8.6453392023068560e+01
1.573125000000000e+00  9.9793050968510943e-01 -8.6670785538986024e+01
1.577500000000000e+00  9.9789411958419894e-01 -8.6895302091556132e+01
1.581875000000000e+00  9.9795378010065094e-01 -8.7132344991101178e+01
1.586250000000000e+00  9.9807787966486694e-01 -8.7348435305910968e+01
1.590625000000000e+00  9.9805724872042767e-01 -8.7572848322006820e+01
1.595000000000000e+00  9.9814224207445512e-01 -8.7799219653271706e+01
1.599375000000000e+00  9.9811766507771493e-01 -8.8030559832857804e+01
1.603750000000000e+00  9.9813986417849143e-01 -8.8261960766760510e+01
1.608125000000000e+00  9.9809003949372166e-01 -8.8486204372672049e+01
1.612500000000000e+00  9.9805140074358867e-01 -8.8720975924026149e+01
1.616875000000000e+00  9.9821482699072706e-01 -8.8948947790686958e+01
1.621250000000000e+00  9.9824235769101344e-01 -8.9173212743092350e+01
1.625625000000000e+00  9.9819331298583192e-01 -8.9399158223834007e+01
1.630000000000000e+00  9.9822122773520172e-01 -8.9621642102149181e+01
1.634375000000000e+00  9.9838609865343642e-01 -8.9847631940487659e+01
1.638750000000000e+00  9.9838335240382992e-01 -9.0071805768918480e+01
1.643125000000000e+00  9.9833438645671435e-01 -9.0290741227152381e+01
1.647500000000000e+00  9.9842370957266757e-01 -9.0520139967709099e+01
1.651875000000000e+00  9.9852784114480575e-01 -9.0744241120673635e+01
1.656250000000000e+00  9.9845956129153257e-01 -9.0952710891332686e+01
1.660625000000000e+00  9.9834783098066326e-01 -9.1173534839492689e+01
1.665000000000000e+00  9.9855601888188150e-01 -9.1393978826718424e+01
1.669375000000000e+00  9.9865524250761806e-01 -9.1611024577288049e+01
1.673750000000000e+00  9.9870681686198837e-01 -9.1826385886511687e+01
1.678125000000000e+00  9.9877794760326399e-01 -9.2050469694065271e+01
1.682500000000000e+00  9.9891568140661047e-01 -9.2260386841121104e+01
1.686875000000000e+00  9.9907340813186418e-01 -9.2478985910849801e+01
1.691250000000000e+00  9.9902798119310643e-01 -9.2692844517564012e+01
1.695625000000000e+00  9.9903936177647956e-01 -9.2920614504497493e+01
1.700000000000000e+00  9.9918506616243608e-01 -9.3144496633321296e+01
1.704375000000000e+00  9.9924746198838277e-01 -9.3361631204211378e+01
1.708750000000000e+00  9.9922902452034612e-01 -9.3575570294463759e+01
1.713125000000000e+00  9.9925295345845433e-01 -9.3787652638286573e+01
1.717500000000000e+00  9.9939682444112332e-01 -9.4011573067605255e+01
1.721875000000000e+00  9.9941621490911714e-01 -9.4221984294523750e+01
1.726250000000000e+00  9.9936488451573924e-01 -9.4438023390089668e+01
1.730625000000000e+00  9.9949472018771646e-01 -9.4663833737689117e+01
1.735000000000000e+00  9.9960446917398504e-01 -9.4886245308426851e+01
1.739375000000000e+00  9.9954961761720540e-01 -9.5111281659535294e+01
1.743750000000000e+00  9.9944941629809925e-01 -9.5336664650874241e+01
1.748125000000000e+00  9.9945876303166237e-01 -9.5563321887953535e+01
1.752500000000000e+00  9.9942878757399223e-01 -9.5776223016115395e+01
1.756875000000000e+00  9.9932629459125855e-01 -9.6009005957494537e+01
1.761250000000000e+00  9.9927446049366608e-01 -9.6227536915529413e+01
1.765625000000000e+00  9.9943968229572633e-01 -9.6455339569674493e+01
1.770000000000000e+00  9.9940336065878732e-01 -9.6666908139806125e+01
1.774375000000000e+00  9.9933835815084626e-01 -9.6887593765349962e+01
1.778750000000000e+00  9.9937898800947644e-01 -9.7121761153493225e+01
1.783125000000000e+00  9.9935625075704193e-01 -9.7347677341009145e+01
1.787500000000000e+00  9.9949226677270686e-01 -9.7568979122738355e+01
1.791875000000000e+00  9.9955248178867040e-01 -9.7790928720026898e+01
1.796250000000000e+00  9.9957576522285041e-01 -9.8016800311845358e+01
1.800625000000000e+00  9.9967061239438970e-01 -9.8240425312011055e+01
1.805000000000000e+00  9.9978967034220811e-01 -9.8467464173171791e+01
1.809375000000000e+00  9.9984564279060262e-01 -9.8688059310411546e+01
1.813750000000000e+00  9.9997200824258936e-01 -9.8906357431747168e+01
1.818125000000000e+00  9.9998268190676687e-01 -9.9122253515901093e+01
1.822500000000000e+00  9.9999725538860618e-01 -9.9345327090393610e+01
1.826875000000000e+00  1.0000570795972192e+00 -9.9568100149770373e+01
1.831250000000000e+00  1.0001973561841679e+00 -9.9791971348042964e+01
1.835625000000000e+00  1.0004076964810851e+00 -1.0001344720714685e+02
1.840000000000000e+00  1.0004202627366849e+00 -1.0022637007016019e+02
1.844375000000000e+00  1.0005509322933006e+00 -1.0045240046100778e+02
1.848750000000000e+00  1.0007497837620087e+00 -1.0068491240000273e+02
1.853125000000000e+00  1.0008174551140638e+00 -1.0090116598944464e+02
1.857500000000000e+00  1.0009298625379845e+00 -1.0110814297155498e+02
1.861875000000000e+00  1.0008878031199466e+00 -1.0132946127100273e+02
1.866250000000000e+00  1.0007709803787632e+00 -1.0155184441795141e+02
1.870625000000000e+00  1.0007526375189111e+00 -1.0177149609649108e+02
1.875000000000000e+00  1.0008919228846196e+00 -1.0198762898961790e+02
1.879375000000000e+00  1.0008382752890501e+00 -1.0219017694577477e+02
1.883750000000000e+00  1.0009455317827960e+00 -1.0240697494726032e+02
1.888125000000000e+00  1.0011497873354642e+00 -1.0262087399673159e+02
1.892500000000000e+00  1.0013179010978102e+00 -1.0282996291734419e+02
1.896875000000000e+00  1.0014054668127037e+00 -1.0303126146058767e+02
1.901250000000000e+00  1.0015001672051198e+00 -1.0325411589979014e+02
1.905625000000000e+00  1.0017086459518854e+00 -1.0346300843511199e+02
1.910000000000000e+00  1.0017589493408714e+00 -1.0368317916895334e+02
1.914375000000000e+00  1.0019645378883080e+00 -1.0390672918001101e+02
1.918750000000000e+00  1.0020370122954136e+00 -1.0411792463407772e+02
1.923125000000000e+00  1.0019526012225948e+00 -1.0432617368758322e+02
1.927500000000000e+00  1.0020893117770275e+00 -1.0453858384782519e+02
1.931875000000000e+00  1.0021450619221595e+00 -1.0475777199767501e+02
1.936250000000000e+00  1.0022470301586848e+00 -1.0498367392994773e+02
1.940625000000000e+00  1.0023969035575826e+00 -1.0519637076810659e+02
1.945000000000000e+00  1.0025230575137130e+00 -1.0540778307891270e+02
1.949375000000000e+00  1.0024688375986939e+00 -1.0563129531357730e+02
1.953750000000000e+00  1.0025556385900185e+00 -1.0585460011954159e+02
1.958125000000000e+00  1.0025652160034919e+00 -1.0607212552777187e+02
1.962500000000000e+00  1.0024270174170931e+00 -1.0630143984551071e+02
1.966875000000000e+00  1.0024251202590317e+00 -1.0652331558777759e+02
1.971250000000000e+00  1.0024090318984598e+00 -1.0674569141073854e+02
1.975625000000000e+00  1.0024688989146029e+00 -1.0696153905169567e+02
1.980000000000000e+00  1.0022042468219292e+00 -1.0717969196682843e+02
1.984375000000000e+00  1.0020723722745499e+00 -1.0739035300566425e+02
1.988750000000000e+00  1.0020399121106827e+00 -1.0760500116976918e+02
1.993125000000000e+00  1.0019737858714881e+00 -1.0781687153688993e+02
1.997500000000000e+00  1.0020664594364512e+00 -1.0802606675373100e+02
2.001875000000000e+00  1.0019402874947736e+00 -1.0824510778705326e+02
2.006250000000000e+00  1.0019831611079801e+00 -1.0846309260556193e+02
2.010625000000000e+00  1.0020975497746512e+00 -1.0866890243815500e+02
2.015000000000000e+00  1.0020918726825727e+00 -1.0889017127656091e+02
2.019375000000000e+00  1.0021599543104309e+00 -1.0911581386087543e+02
2.023750000000000e+00  1.0022289396570718e+00 -1.0932322708073777e+02
2.028125000000000e+00  1.0022924984326411e+00 -1.0953283640041799e+02
2.032500000000000e+00  1.0025197229390952e+00 -1.0975601255714813e+02
2.036875000000000e+00  1.0026083996196251e+00 -1.0996001179744073e+02
2.041250000000000e+00  1.0027547965182599e+00 -1.1017603140906277e+02
2.045625000000000e+00  1.0030045560324938e+00 -1.1039567213782736e+02
2.050000000000000e+00  1.0029260260153907e+00 -1.1060767056207892e+02
2.054375000000000e+00  1.0030295671429641e+00 -1.1082536798342994e+02
2.058750000000000e+00  1.0031081452246060e+00 -1.1104201635510795e+02
2.063125000000000e+00  1.0031852517274804e+00 -1.1125149823411965e+02
2.067500000000000e+00  1.0032799177965956e+00 -1.1147583385070118e+02
2.071875000000000e+00  1.0032826371830166e+00 -1.1168943301509263e+02
2.076250000000000e+00  1.0033784148502207e+00 -1.1189557722231137e+02
2.080625000000000e+00  1.0034421119662660e+00 -1.1210460515510177e+02
2.085000000000000e+00  1.0033164880303549e+00 -1.1232212170867902e+02
2.089375000000000e+00  1.0032857181242831e+00 -1.1251891643738233e+02
2.093750000000000e+00  1.0033865912142044e+00 -1.1271852448686847e+02
2.098125000000000e+00  1.0034347542057231e+00 -1.1292722423781903e+02
2.102500000000000e+00  1.0034079632411073e+00 -1.1314184481999592e+02
2.106875000000000e+00  1.0033182549413755e+00 -1.1333749270682800e+02
2.111250000000000e+00  1.0034374713162619e+00 -1.1354157352767146e+02
2.115625000000000e+00  1.0034018137018843e+00 -1.1374981349853977e+02
2.120000000000000e+00  1.0033794112582284e+00 -1.1395806551916502e+02
2.124375000000000e+00  1.0035901536807308e+00 -1.1416451040524176e+02
2.128750000000000e+00  1.0037483455733693e+00 -1.1436682442363387e+02
2.133125000000000e+00  1.0038254743393056e+00 -1.1456576818821343e+02
2.137500000000000e+00  1.0036802343589188e+00 -1.1476893515753096e+02
2.141875000000000e+00  1.0037522568950481e+00 -1.1497248321196993e+02
2.146250000000000e+00  1.0036403330725778e+00 -1.1518897637958605e+02
2.150625000000000e+00  1.0036833553714706e+00 -1.1539398835957238e+02
2.155000000000000e+00  1.0036004752069347e+00 -1.1560663926754691e+02
2.159375000000000e+00  1.0036829624037229e+00 -1.1581320166807870e+02
2.163750000000000e+00  1.0038307737669852e+00 -1.1603377812469513e+02
2.168125000000000e+00  1.0037216362807024e+00 -1.1624251603221612e+02
2.172500000000000e+00  1.0037757648652046e+00 -1.1645676673874863e+02
2.176875000000000e+00  1.0036661254238286e+00 -1.1665854434323545e+02
2.181250000000000e+00  1.0036796358583018e+00 -1.1687669226758509e+02
2.185625000000000e+00  1.0035168861211958e+00 -1.1709649040985269e+02
2.190000000000000e+00  1.0034353625978083e+00 -1.1730851331311827e+02
2.194375000000000e+00  1.0033782849040638e+00 -1.1751042485130897e+02
2.198750000000000e+00  1.0033675712496322e+00 -1.1773102608433614e+02
2.203125000000000e+00  1.0032589589192635e+00 -1.1794320847152922e+02
2.207500000000000e+00  1.0032554518059649e+00 -1.1814671206045581e+02
2.211875000000000e+00  1.0033392051542813e+00 -1.1836177788625092e+02
2.216250000000000e+00  1.0032813218159362e+00 -1.1856775861541072e+02
2.220625000000000e+00  1.0033607248466350e+00 -1.1877582643137622e+02
2.225000000000000e+00  1.0033999671156595e+00 -1.1898554737846348e+02
2.229375000000000e+00  1.0034526517308302e+00 -1.1919524911280637e+02
2.233750000000000e+00  1.0034240351212798e+00 -1.1940597463146005e+02
2.238125000000000e+00  1.0032956074269717e+00 -1.1961237150564848e+02
2.242500000000000e+00  1.0034908314630790e+00 -1.1982873736424419e+02
