# GHz S MA R 50

1.000000000000000e+00  9.9986177332905635e-01 -9.8797616447656281e+01
1.005625000000000e+00  9.9996810821253435e-01 -9.9072803494976881e+01
1.011250000000000e+00  9.9989051936665585e-01 -9.9394187588793542e+01
1.016875000000000e+00  9.9982727037945407e-01 -9.9751266926148190e+01
1.022500000000000e+00  9.9966764328694935e-01 -1.0013463391416086e+02
1.028125000000000e+00  9.9961969941216089e-01 -1.0053874380925141e+02
1.033750000000000e+00  9.9959266271480474e-01 -1.0098951801654049e+02
1.039375000000000e+00  9.9958056448993171e-01 -1.0146225064000646e+02
1.045000000000000e+00  9.9975658272331624e-01 -1.0196747432089185e+02
1.050625000000000e+00  9.9975834567886857e-01 -1.0250433635963753e+02
1.056250000000000e+00  9.9954587759695779e-01 -1.0303618097644534e+02
1.061875000000000e+00  9.9958937566442096e-01 -1.0357125527352304e+02
1.067500000000000e+00  9.9966813192792348e-01 -1.0410157355004600e+02
1.073125000000000e+00  9.9952313342562504e-01 -1.0464000901123183e+02
1.078750000000000e+00  9.9966711598298008e-01 -1.0518086961938965e+02
1.084375000000000e+00  9.9982943654191558e-01 -1.0571358313870654e+02
1.090000000000000e+00  9.9992312288567820e-01 -1.0624684492394297e+02
1.095625000000000e+00  9.9988451911171694e-01 -1.0679287565300065e+02
1.101250000000000e+00  9.9972188051118827e-01 -1.0734640800025511e+02
1.106875000000000e+00  9.9985862362143629e-01 -1.0787971666592246e+02
1.112500000000000e+00  9.9993719009868742e-01 -1.0841559494359289e+02
1.118125000000000e+00  1.0001320719116984e+00 -1.0895077437728592e+02
1.123750000000000e+00  1.0001942028776218e+00 -1.0949201186693155e+02
1.129375000000000e+00  1.0002488528869928e+00 -1.1001282711334878e+02
1.135000000000000e+00  1.0003396301275858e+00 -1.1055133987287526e+02
1.140625000000000e+00  1.0002055538966443e+00 -1.1109662682321036e+02
1.146250000000000e+00  1.0003097853419667e+00 -1.1163489303088689e+02
1.151875000000000e+00  1.0004436716622582e+00 -1.1215549533658978e+02
1.157500000000000e+00  1.0004138579085713e+00 -1.1268749157586072e+02
1.163125000000000e+00  1.0004222586514844e+00 -1.1322635954572095e+02
1.168750000000000e+00  1.0006844727084292e+00 -1.1374763923568833e+02
1.174375000000000e+00  1.0007638184163148e+00 -1.1427737673381718e+02
1.180000000000000e+00  1.0005578649403866e+00 -1.1481102457441833e+02
1.185625000000000e+00  1.0004503551050943e+00 -1.1535033252080946e+02
1.191250000000000e+00  1.0004896701041655e+00 -1.1587255180819854e+02
1.196875000000000e+00  1.0006256553761232e+00 -1.1639625195494368e+02
1.202500000000000e+00  1.0005722587792709e+00 -1.1691986282299959e+02
1.208125000000000e+00  1.0005331559959698e+00 -1.1743963846828376e+02
1.213750000000000e+00  1.0005940394917745e+00 -1.1796876818730104e+02
1.219375000000000e+00  1.0006138074479429e+00 -1.1849177728497484e+02
1.225000000000000e+00  1.0005597479537149e+00 -1.1902371194826098e+02
1.230625000000000e+00  1.0004148856628212e+00 -1.1954131663895548e+02
1.236250000000000e+00  1.0004045154436858e+00 -1.2005727804792281e+02
1.241875000000000e+00  1.0004000445655661e+00 -1.2058996533386376e+02
1.247500000000000e+00  1.0004771186835171e+00 -1.2112890641819398e+02
1.253125000000000e+00  1.0003924810324554e+00 -1.2164780799722467e+02
1.258750000000000e+00  1.0004261629621116e+00 -1.2217990281562201e+02
1.264375000000000e+00  1.0004966427373119e+00 -1.2270750449156934e+02
1.270000000000000e+00  1.0005251880911237e+00 -1.2323347531942356e+02
1.275625000000000e+00  1.0007058801083710e+00 -1.2376518247765537e+02
1.281250000000000e+00  1.0006070925203558e+00 -1.2428766450746699e+02
1.286875000000000e+00  1.0005032667170628e+00 -1.2482436440442916e+02
1.292500000000000e+00  1.0004487241611175e+00 -1.2535197905113826e+02
1.298125000000000e+00  1.0005547923539355e+00 -1.2589156663680525e+02
1.303750000000000e+00  1.0005490622947424e+00 -1.2642426308247026e+02
1.309375000000000e+00  1.0003915426271661e+00 -1.2694750194637160e+02
1.315000000000000e+00  1.0004305141000653e+00 -1.2748792321876279e+02
1.320625000000000e+00  1.0005261193898189e+00 -1.2802304789745750e+02
1.326250000000000e+00  1.0006328965090829e+00 -1.2855255788472019e+02
1.331875000000000e+00  1.0005260686594275e+00 -1.2909131574148702e+02
1.337500000000000e+00  1.0004817223322262e+00 -1.2960641687742230e+02
1.343125000000000e+00  1.0003155614611807e+00 -1.3012673366649662e+02
1.348750000000000e+00  1.0003844375299840e+00 -1.3066271911261558e+02
1.354375000000000e+00  1.0002766990995771e+00 -1.3118395185910452e+02
1.360000000000000e+00  1.0001101153811691e+00 -1.3171716960949553e+02
1.365625000000000e+00  9.9986396037437797e-01 -1.3224263342971244e+02
1.371250000000000e+00  9.9970530474119534e-01 -1.3276336851045372e+02
1.376875000000000e+00  9.9975479787320709e-01 -1.3329186490440054e+02
1.382500000000000e+00  9.9980661079414013e-01 -1.3381027119286108e+02
1.388125000000000e+00  9.9961483511527316e-01 -1.3433702143398324e+02
1.393750000000000e+00  9.9950822457810196e-01 -1.3484908525982434e+02
1.399375000000000e+00  9.9939514658137618e-01 -1.3536124861643970e+02
1.405000000000000e+00  9.9947213652205547e-01 -1.3588205099196142e+02
1.410625000000000e+00  9.9932441018570295e-01 -1.3639078553367978e+02
1.416250000000000e+00  9.9917208450382355e-01 -1.3690474141539966e+02
1.421875000000000e+00  9.9919188991262808e-01 -1.3742602152137206e+02
1.427500000000000e+00  9.9919491123174797e-01 -1.3793266324074943e+02
1.433125000000000e+00  9.9907102685904403e-01 -1.3844988723136365e+02
1.438750000000000e+00  9.9905458291764626e-01 -1.3897081552253630e+02
1.444375000000000e+00  9.9907431747921605e-01 -1.3948944425658334e+02
1.450000000000000e+00  9.9901224924350052e-01 -1.4000013602299177e+02
1.455625000000000e+00  9.9897548461634078e-01 -1.4051736696601679e+02
1.461250000000000e+00  9.9898733519412908e-01 -1.4102856998372164e+02
1.466875000000000e+00  9.9897960154621368e-01 -1.4155532121307505e+02
1.472500000000000e+00  9.9891185603484833e-01 -1.4207558189065287e+02
1.478125000000000e+00  9.9899493360454839e-01 -1.4258785516645440e+02
1.483750000000000e+00  9.9891980930474644e-01 -1.4310069531006849e+02
1.489375000000000e+00  9.9888335128624406e-01 -1.4362269436738006e+02
1.495000000000000e+00  9.9882256445159301e-01 -1.4415320130502553e+02
1.500625000000000e+00  9.9888897901766782e-01 -1.4466825289280254e+02
1.506250000000000e+00  9.9882155230869296e-01 -1.4519169349650093e+02
1.511875000000000e+00  9.9875268502077408e-01 -1.4571608174460687e+02
1.517500000000000e+00  9.9860657900533578e-01 -1.4624485787659466e+02
1.523125000000000e+00  9.9855435453207242e-01 -1.4677616797289411e+02
1.528750000000000e+00  9.9855663117910987e-01 -1.4728760446105477e+02
1.534375000000000e+00  9.9859924716970383e-01 -1.4780585756136250e+02
1.540000000000000e+00  9.9836768818895782e-01 -1.4832377015876995e+02
1.545625000000000e+00  9.9827483964755492e-01 -1.4885000235086522e+02
1.551250000000000e+00  9.9810381435780227e-01 -1.4937484113971760e+02
1.556875000000000e+00  9.9815699171419880e-01 -1.4989638921593200e+02
1.562500000000000e+00  9.9806548547283302e-01 -1.5041244310653948e+02
1.568125000000000e+00  9.9785038848497276e-01 -1.5094607669273745e+02
1.573750000000000e+00  9.9770677150339349e-01 -1.5145947460688359e+02
1.579375000000000e+00  9.9773843594024025e-01 -1.5197390255803870e+02
1.585000000000000e+00  9.9763286321572331e-01 -1.5248569804981310e+02
1.590625000000000e+00  9.9763514476623505e-01 -1.5299051882081434e+02
1.596250000000000e+00  9.9751066614635342e-01 -1.5351882798433019e+02
1.601875000000000e+00  9.9764611788707591e-01 -1.5403457494098402e+02
1.607500000000000e+00  9.9771016230277476e-01 -1.5454403900712350e+02
1.613125000000000e+00  9.9764844001530018e-01 -1.5505372946824957e+02
1.618750000000000e+00  9.9766567260501493e-01 -1.5556344265900680e+02
1.624375000000000e+00  9.9764733846369080e-01 -1.5608360133157947e+02
1.630000000000000e+00  9.9759542926553424e-01 -1.5659703901963400e+02
1.635625000000000e+00  9.9758241945215154e-01 -1.5709807343409705e+02
1.641250000000000e+00  9.9749299018979398e-01 -1.5759736318696346e+02
1.646875000000000e+00  9.9742240741709853e-01 -1.5810483706335410e+02
1.652500000000000e+00  9.9735715114002355e-01 -1.5861823332969331e+02
1.658125000000000e+00  9.9721587171288906e-01 -1.5912072977832344e+02
1.663750000000000e+00  9.9703281679554923e-01 -1.5961144621083776e+02
1.669375000000000e+00  9.9678554447448620e-01 -1.6012929500857072e+02
1.675000000000000e+00  9.9668743402265336e-01 -1.6064686594881178e+02
1.680625000000000e+00  9.9657622975329363e-01 -1.6114781317966043e+02
1.686250000000000e+00  9.9649319026132832e-01 -1.6165716114633480e+02
1.691875000000000e+00  9.9623882602284919e-01 -1.6217114515957678e+02
1.697500000000000e+00  9.9598447349869457e-01 -1.6267655623407558e+02
1.703125000000000e+00  9.9571058205797403e-01 -1.6320067663807140e+02
1.708750000000000e+00  9.9568855608715967e-01 -1.6371689575029779e+02
1.714375000000000e+00  9.9546644616208446e-01 -1.6423218107109366e+02
1.720000000000000e+00  9.9539447717061202e-01 -1.6473964306514907e+02
1.725625000000000e+00  9.9522816925440771e-01 -1.6525724198377841e+02
1.731250000000000e+00  9.9523185063757735e-01 -1.6577626682872432e+02
1.736875000000000e+00  9.9515376945617096e-01 -1.6628933354937686e+02
1.742500000000000e+00  9.9507332921360603e-01 -1.6679952531543589e+02
1.748125000000000e+00  9.9500554986884382e-01 -1.6731070139883329e+02
1.753750000000000e+00  9.9488070245149307e-01 -1.6781661672256166e+02
1.759375000000000e+00  9.9495298286814504e-01 -1.6832404236876945e+02
1.765000000000000e+00  9.9492956129698840e-01 -1.6882758788622363e+02
1.770625000000000e+00  9.9477870844927763e-01 -1.6932711303304811e+02
1.776250000000000e+00  9.9480835546313950e-01 -1.6985283467005684e+02
1.781875000000000e+00  9.9473210652871991e-01 -1.7035879974099430e+02
1.787500000000000e+00  9.9463715547521947e-01 -1.7085500821977669e+02
1.793125000000000e+00  9.9448503662580756e-01 -1.7136612511962295e+02
1.798750000000000e+00  9.9437754455387095e-01 -1.7186641616168941e+02
1.804375000000000e+00  9.9424703221544208e-01 -1.7236956253547626e+02
1.810000000000000e+00  9.9409857719099348e-01 -1.7287389282235941e+02
1.815625000000000e+00  9.9395598193885093e-01 -1.7338317123503683e+02
1.821250000000000e+00  9.9386808644830460e-01 -1.7388886969473074e+02
1.826875000000000e+00  9.9363906111028855e-01 -1.7439691763459058e+02
1.832500000000000e+00  9.9358480631682389e-01 -1.7490212295793899e+02
1.838125000000000e+00  9.9335468013987549e-01 -1.7541323492260372e+02
1.843750000000000e+00  9.9331233559755738e-01 -1.7591087156547192e+02
1.849375000000000e+00  9.9331064652254586e-01 -1.7641191651889054e+02
1.855000000000000e+00  9.9310408798422778e-01 -1.7691910395761943e+02
1.860625000000000e+00  9.9293941678450870e-01 -1.7743342032112574e+02
1.866250000000000e+00  9.9298114742610422e-01 -1.7794107902284497e+02
1.871875000000000e+00  9.9282957781721426e-01 -1.7844118405531847e+02
1.877500000000000e+00  9.9262713750795961e-01 -1.7895536323077249e+02
1.883125000000000e+00  9.9256626637748679e-01 -1.7946622024609968e+02
1.888750000000000e+00  9.9240132997590957e-01 -1.7996299974776232e+02
1.894375000000000e+00  9.9225097456967348e-01  1.7953301616696990e+02
1.900000000000000e+00  9.9202432942766616e-01  1.7903053131166808e+02
1.905625000000000e+00  9.9193424696683630e-01  1.7852970822112792e+02
1.911250000000000e+00  9.9182636764399890e-01  1.7803217430738732e+02
1.916875000000000e+00  9.9160904147994555e-01  1.7753587625956101e+02
1.922500000000000e+00  9.9149819942317241e-01  1.7703772780795413e+02
1.928125000000000e+00  9.9155739099227502e-01  1.7653630455495093e+02
1.933750000000000e+00  9.9163584551286410e-01  1.7603121758884782e+02
1.939375000000000e+00  9.9152705690515086e-01  1.7551797938917792e+02
1.945000000000000e+00  9.9139601478223216e-01  1.7501123704842729e+02
1.950625000000000e+00  9.9136415246394982e-01  1.7450983625840431e+02
1.956250000000000e+00  9.9119429268978854e-01  1.7402488107679369e+02
1.961875000000000e+00  9.9105610601275462e-01  1.7351290231580228e+02
1.967500000000000e+00  9.9084618626940890e-01  1.7301397377057077e+02
1.973125000000000e+00  9.9079822723962463e-01  1.7251731105152686e+02
1.978750000000000e+00  9.9068632665572731e-01  1.7201416890549268e+02
1.984375000000000e+00  9.9083781665866022e-01  1.7149829152041974e+02
1.990000000000000e+00  9.9064579388683971e-01  1.7100195586247980e+02
1.995625000000000e+00  9.9052310342077587e-01  1.7050720610170453e+02
2.001250000000000e+00  9.9034163591974700e-01  1.6999488396475829e+02
2.006875000000000e+00  9.9027154549878449e-01  1.6949173984687528e+02
2.012500000000000e+00  9.9027119564317112e-01  1.6898129325595599e+02
2.018125000000000e+00  9.9007973319324660e-01  1.6847671510827874e+02
2.023750000000000e+00  9.8979235928184772e-01  1.6796804435392215e+02
2.029375000000000e+00  9.8962937115148619e-01  1.6747962453817644e+02
2.035000000000000e+00  9.8936920160249986e-01  1.6697067712299284e+02
2.040625000000000e+00  9.8926185878216111e-01  1.6646618026877010e+02
2.046250000000000e+00  9.8905358884888972e-01  1.6596632917590182e+02
2.051875000000000e+00  9.8900379278615991e-01  1.6545476950792366e+02
2.057500000000000e+00  9.8870991091471261e-01  1.6495830938406493e+02
2.063125000000000e+00  9.8850665424478867e-01  1.6445818294044528e+02
2.068750000000000e+00  9.8832008413679540e-01  1.6395691110832570e+02
2.074375000000000e+00  9.8813011687472174e-01  1.6345228043267676e+02
2.080000000000000e+00  9.8776785233566300e-01  1.6295232293950613e+02
2.085625000000000e+00  9.8764177269306075e-01  1.6244013390044532e+02
2.091250000000000e+00  9.8749874728310472e-01  1.6193348969850811e+02
2.096875000000000e+00  9.8729735851869149e-01  1.6143904042877384e+02
2.102500000000000e+00  9.8692094814420739e-01  1.6093194345389435e+02
2.108125000000000e+00  9.8666087901695332e-01  1.6042342332743380e+02
2.113750000000000e+00  9.8651216697258992e-01  1.5992482441280316e+02
2.119375000000000e+00  9.8630255958737134e-01  1.5941179353721375e+02
2.125000000000000e+00  9.8622451936812394e-01  1.5890546281533543e+02
2.130625000000000e+00  9.8593502000913946e-01  1.5840771269249888e+02
2.136250000000000e+00  9.8568637195562758e-01  1.5790508615850709e+02
2.141875000000000e+00  9.8549245048294387e-01  1.5739596698842126e+02
2.147500000000000e+00  9.8529252980375004e-01  1.5689811290187791e+02
2.153125000000000e+00  9.8505869701192461e-01  1.5640121562984339e+02
2.158750000000000e+00  9.8488946982928083e-01  1.5590970658842178e+02
2.164375000000000e+00  9.8455568246730696e-01  1.5540980072067131e+02
2.170000000000000e+00  9.8438510482763619e-01  1.5492376514877617e+02
2.175625000000000e+00  9.8415736411384724e-01  1.5442024373327507e+02
2.181250000000000e+00  9.8377646498181215e-01  1.5393571771818270e+02
2.186875000000000e+00  9.8352052533065781e-01  1.5343256361895831e+02
2.192500000000000e+00  9.8357356556762177e-01  1.5292215077910794e+02
2.198125000000000e+00  9.8338812838760137e-01  1.5242025244392238e+02
2.203750000000000e+00  9.8320277226926334e-01  1.5193399899586254e+02
2.209375000000000e+00  9.8291014961739176e-01  1.5142574372588342e+02
2.215000000000000e+00  9.8246361253252967e-01  1.5093415977365035e+02
2.220625000000000e+00  9.8212671206645397e-01  1.5043111660889733e+02
2.226250000000000e+00  9.8185722712345880e-01  1.4993571626982188e+02
2.231875000000000e+00  9.8151903444939836e-01  1.4943311243112325e+02
2.237500000000000e+00  9.8132980815210735e-01  1.4892654186787993e+02
2.243125000000000e+00  9.8104343821755202e-01  1.4842612559684270e+02
2.248750000000000e+00  9.8098090319830811e-01  1.4791828619921290e+02
2.254375000000000e+00  9.8075686929034267e-01  1.4740574407909924e+02
2.260000000000000e+00  9.8059468201511191e-01  1.4689450244055632e+02
2.265625000000000e+00  9.8044301185413063e-01  1.4638907297345065e+02
2.271250000000000e+00  9.8013782710885433e-01  1.4589381717414076e+02
2.276875000000000e+00  9.7996145257523071e-01  1.4538101886206164e+02
2.282500000000000e+00  9.7972312726334587e-01  1.4487975378244192e+02
2.288125000000000e+00  9.7931840796471581e-01  1.4438573443964899e+02
2.293750000000000e+00  9.7919774074867094e-01  1.4388046422461622e+02
2.299375000000000e+00  9.7898745677570398e-01  1.4336121889251257e+02
2.305000000000000e+00  9.7889816302911536e-01  1.4286824144814787e+02
2.310625000000000e+00  9.7867140082040793e-01  1.4235896747419906e+02
2.316250000000000e+00  9.7840373985238771e-01  1.4185542064537657e+02
2.321875000000000e+00  9.7816877347144515e-01  1.4134047091477083e+02
2.327500000000000e+00  9.7803917057315970e-01  1.4084040692848055e+02
2.333125000000000e+00  9.7767927115108011e-01  1.4033937801532909e+02
2.338750000000000e+00  9.7746565063911084e-01  1.3982750859459858e+02
2.344375000000000e+00  9.7701543270300695e-01  1.3932319412615695e+02
2.350000000000000e+00  9.7676441870798847e-01  1.3881289603006229e+02
2.355625000000000e+00  9.7650440806220640e-01  1.3832422951734671e+02
2.361250000000000e+00  9.7609917378357536e-01  1.3780933467579646e+02
2.366875000000000e+00  9.7586600261621526e-01  1.3730397859174195e+02
2.372500000000000e+00  9.7560026160216773e-01  1.3679735247190817e+02
2.378125000000000e+00  9.7539072355652578e-01  1.3629432028978945e+02
2.383750000000000e+00  9.7503943883163380e-01  1.3578621411370506e+02
2.389375000000000e+00  9.7470046575208003e-01  1.3528160557541031e+02
2.395000000000000e+00  9.7437183002255401e-01  1.3478555264273706e+02
2.400625000000000e+00  9.7401081742134510e-01  1.3427769987638243e+02
2.406250000000000e+00  9.7376583810998807e-01  1.3377972030164355e+02
2.411875000000000e+00  9.7334081093430180e-01  1.3327091312463236e+02
2.417500000000000e+00  9.7303236397712134e-01  1.3276687961828731e+02
2.423125000000000e+00  9.7265147491416637e-01  1.3225833141722586e+02
2.428750000000000e+00  9.7229684610612144e-01  1.3175689815535671e+02
2.434375000000000e+00  9.7199661463366371e-01  1.3125378506293066e+02
2.440000000000000e+00  9.7162873599397770e-01  1.3074339485133041e+02
2.445625000000000e+00  9.7133981904622868e-01  1.3024671756571374e+02
2.451250000000000e+00  9.7119064004981959e-01  1.2973480230103934e+02
2.456875000000000e+00  9.7098345949251263e-01  1.2923859915372432e+02
2.462500000000000e+00  9.7066313749495947e-01  1.2873717334816860e+02
2.468125000000000e+00  9.7033295682790510e-01  1.2822331655843197e+02
2.473750000000000e+00  9.7004030997110413e-01  1.2771783951909471e+02
2.479375000000000e+00  9.6977459749185813e-01  1.2721427760939969e+02
2.485000000000000e+00  9.6944907800400137e-01  1.2672091755587601e+02
2.490625000000000e+00  9.6913652342297796e-01  1.2621639763549227e+02
2.496250000000000e+00  9.6887826887533957e-01  1.2571914763184057e+02
2.501875000000000e+00  9.6869742583465746e-01  1.2521264854699325e+02
2.507500000000000e+00  9.6872936695952772e-01  1.2471136373887003e+02
2.513125000000000e+00  9.6853262487131198e-01  1.2422233052658049e+02
2.518750000000000e+00  9.6826246995459120e-01  1.2372362449677838e+02
2.524375000000000e+00  9.6806482149269768e-01  1.2323119009400895e+02
2.530000000000000e+00  9.6793870736885101e-01  1.2273859097444290e+02
2.535625000000000e+00  9.6763159619928829e-01  1.2224251486597781e+02
2.541250000000000e+00  9.6735264476746663e-01  1.2173503624457467e+02
2.546875000000000e+00  9.6709271201057290e-01  1.2123569231119893e+02
2.552500000000000e+00  9.6685452722834531e-01  1.2072742138868377e+02
2.558125000000000e+00  9.6666609235947232e-01  1.2021985040726389e+02
2.563750000000000e+00  9.6635279667601182e-01  1.1973141551536605e+02
2.569375000000000e+00  9.6603523896617027e-01  1.1923480268445975e+02
2.575000000000000e+00  9.6584123525144938e-01  1.1873211454913880e+02
2.580625000000000e+00  9.6568878954226101e-01  1.1821797847970812e+02
2.586250000000000e+00  9.6543918510795468e-01  1.1771121891353707e+02
2.591875000000000e+00  9.6501783005210229e-01  1.1719548676070441e+02
2.597500000000000e+00  9.6444332833179436e-01  1.1669640005802484e+02
