# GHz S MA R 50

1.000000000000000e+00  9.9294068676124470e-01 -8.3041201622757029e+01
1.005625000000000e+00  9.9311139474414700e-01 -8.3299523331640870e+01
1.011250000000000e+00  9.9315322646884752e-01 -8.3586899294927861e+01
1.016875000000000e+00  9.9326881720827120e-01 -8.3897561619576592e+01
1.022500000000000e+00  9.9311234706190932e-01 -8.4240002785341943e+01
1.028125000000000e+00  9.9308125442326789e-01 -8.4602485864045022e+01
1.033750000000000e+00  9.9311976019849635e-01 -8.5005779209778197e+01
1.039375000000000e+00  9.9328164911494654e-01 -8.5421726962897026e+01
1.045000000000000e+00  9.9347999446469448e-01 -8.5874507584920096e+01
1.050625000000000e+00  9.9356079851449230e-01 -8.6351102953503798e+01
1.056250000000000e+00  9.9372557246052118e-01 -8.6811775995352136e+01
1.061875000000000e+00  9.9376441361062917e-01 -8.7280551658074131e+01
1.067500000000000e+00  9.9375139347314601e-01 -8.7743708404481083e+01
1.073125000000000e+00  9.9380235453487775e-01 -8.8208605594689232e+01
1.078750000000000e+00  9.9388190483432570e-01 -8.8689213165018685e+01
1.084375000000000e+00  9.9394249955969438e-01 -8.9159079528360138e+01
1.090000000000000e+00  9.9416030956108326e-01 -8.9639443769787292e+01
1.095625000000000e+00  9.9423421792029110e-01 -9.0116072202176099e+01
1.101250000000000e+00  9.9422370642176439e-01 -9.0589170568450939e+01
1.106875000000000e+00  9.9431262561248923e-01 -9.1065730538453948e+01
1.112500000000000e+00  9.9425841694116834e-01 -9.1546019610606365e+01
1.118125000000000e+00  9.9445276100487079e-01 -9.2018925550043420e+01
1.123750000000000e+00  9.9471482264932964e-01 -9.2491614500788543e+01
1.129375000000000e+00  9.9475608933909387e-01 -9.2949041790730533e+01
1.135000000000000e+00  9.9481618332568922e-01 -9.3422401661740807e+01
1.140625000000000e+00  9.9476148576623513e-01 -9.3896388572278951e+01
1.146250000000000e+00  9.9478185177208645e-01 -9.4375652935968205e+01
1.151875000000000e+00  9.9487181587377105e-01 -9.4854864148567032e+01
1.157500000000000e+00  9.9494020293884844e-01 -9.5334445307541444e+01
1.163125000000000e+00  9.9510555428994829e-01 -9.5812000872020135e+01
1.168750000000000e+00  9.9514440474945143e-01 -9.6299444430868732e+01
1.174375000000000e+00  9.9523517828182084e-01 -9.6762182796241206e+01
1.180000000000000e+00  9.9524378743352160e-01 -9.7241818713346632e+01
1.185625000000000e+00  9.9522321471252739e-01 -9.7718638904538793e+01
1.191250000000000e+00  9.9533198016055713e-01 -9.8194944941706041e+01
1.196875000000000e+00  9.9537503782986891e-01 -9.8666963621029538e+01
1.202500000000000e+00  9.9543128751370114e-01 -9.9130517148101433e+01
1.208125000000000e+00  9.9546750007437756e-01 -9.9596598116710751e+01
1.213750000000000e+00  9.9556620269244056e-01 -1.0007156770795622e+02
1.219375000000000e+00  9.9550446535385628e-01 -1.0055243586644700e+02
1.225000000000000e+00  9.9544710786627721e-01 -1.0103227806393838e+02
1.230625000000000e+00  9.9536377254108277e-01 -1.0151147233521226e+02
1.236250000000000e+00  9.9551468360899120e-01 -1.0197613244420336e+02
1.241875000000000e+00  9.9565789092657742e-01 -1.0245413888978013e+02
1.247500000000000e+00  9.9576065814642267e-01 -1.0292801922738505e+02
1.253125000000000e+00  9.9574208129125619e-01 -1.0338631550506565e+02
1.258750000000000e+00  9.9579371299902442e-01 -1.0386078402280910e+02
1.264375000000000e+00  9.9595074562077834e-01 -1.0433643710290821e+02
1.270000000000000e+00  9.9623370683316448e-01 -1.0480377410678840e+02
1.275625000000000e+00  9.9638215405776598e-01 -1.0526850912732164e+02
1.281250000000000e+00  9.9649441131553129e-01 -1.0575113036112420e+02
1.286875000000000e+00  9.9643812397473908e-01 -1.0623030327736448e+02
1.292500000000000e+00  9.9647786176819164e-01 -1.0671453866030214e+02
1.298125000000000e+00  9.9650339277042677e-01 -1.0719470989304862e+02
1.303750000000000e+00  9.9660817167621740e-01 -1.0767649446338017e+02
1.309375000000000e+00  9.9661986163798033e-01 -1.0815199530301798e+02
1.315000000000000e+00  9.9664235107725130e-01 -1.0862857301249393e+02
1.320625000000000e+00  9.9687910208037467e-01 -1.0910777206891954e+02
1.326250000000000e+00  9.9710565339989754e-01 -1.0957903729037909e+02
1.331875000000000e+00  9.9704567031598068e-01 -1.1007615068909546e+02
1.337500000000000e+00  9.9713214622755586e-01 -1.1054927235346705e+02
1.343125000000000e+00  9.9710037847428190e-01 -1.1101887751526546e+02
1.348750000000000e+00  9.9736099881611640e-01 -1.1150222518471760e+02
1.354375000000000e+00  9.9736387487543421e-01 -1.1198534655396743e+02
1.360000000000000e+00  9.9693788261724903e-01 -1.1246322807423472e+02
1.365625000000000e+00  9.9671649165958376e-01 -1.1295534083267233e+02
1.371250000000000e+00  9.9677208822170515e-01 -1.1343491647028748e+02
1.376875000000000e+00  9.9690066593412840e-01 -1.1391048723700568e+02
1.382500000000000e+00  9.9709272406158811e-01 -1.1439373938616318e+02
1.388125000000000e+00  9.9723612875823275e-01 -1.1487029280108963e+02
1.393750000000000e+00  9.9721191747618787e-01 -1.1535893637863701e+02
1.399375000000000e+00  9.9738512337423313e-01 -1.1583824904859243e+02
1.405000000000000e+00  9.9750575048419199e-01 -1.1631105994786550e+02
1.410625000000000e+00  9.9746232588226758e-01 -1.1678455914415080e+02
1.416250000000000e+00  9.9750183380915647e-01 -1.1726354481394939e+02
1.421875000000000e+00  9.9784837202591370e-01 -1.1775707157267723e+02
1.427500000000000e+00  9.9790541230470797e-01 -1.1823358634523603e+02
1.433125000000000e+00  9.9803146538903964e-01 -1.1871001369700062e+02
1.438750000000000e+00  9.9792407021218432e-01 -1.1918394510310551e+02
1.444375000000000e+00  9.9787723439543585e-01 -1.1966424827112060e+02
1.450000000000000e+00  9.9789459836081140e-01 -1.2012652585177774e+02
1.455625000000000e+00  9.9800203683618183e-01 -1.2059808147498730e+02
1.461250000000000e+00  9.9805173107540990e-01 -1.2107792970506458e+02
1.466875000000000e+00  9.9809340613004616e-01 -1.2156044706441035e+02
1.472500000000000e+00  9.9832552409170960e-01 -1.2204065756847456e+02
1.478125000000000e+00  9.9847783901171361e-01 -1.2251363439715743e+02
1.483750000000000e+00  9.9841031177796236e-01 -1.2298671762118543e+02
1.489375000000000e+00  9.9859640031575381e-01 -1.2346958816080023e+02
1.495000000000000e+00  9.9854033545757459e-01 -1.2395378370320323e+02
1.500625000000000e+00  9.9868001563314368e-01 -1.2442673621003415e+02
1.506250000000000e+00  9.9873989263407603e-01 -1.2491184517141588e+02
1.511875000000000e+00  9.9875417093559649e-01 -1.2539949039793640e+02
1.517500000000000e+00  9.9864140110884880e-01 -1.2588023568133266e+02
1.523125000000000e+00  9.9875666626044113e-01 -1.2636743883089750e+02
1.528750000000000e+00  9.9867560651031761e-01 -1.2684853730904310e+02
1.534375000000000e+00  9.9881755034809361e-01 -1.2732960972388344e+02
1.540000000000000e+00  9.9883416742414932e-01 -1.2783030493708628e+02
1.545625000000000e+00  9.9901780120363426e-01 -1.2832906170273853e+02
1.551250000000000e+00  9.9897155272737170e-01 -1.2881698780273291e+02
1.556875000000000e+00  9.9909221341582699e-01 -1.2930048926580290e+02
1.562500000000000e+00  9.9904957557186980e-01 -1.2978136946830352e+02
1.568125000000000e+00  9.9884445697738045e-01 -1.3027357043123757e+02
1.573750000000000e+00  9.9861664101458625e-01 -1.3075683707190873e+02
1.579375000000000e+00  9.9859192553923415e-01 -1.3123830602349136e+02
1.585000000000000e+00  9.9868081296609423e-01 -1.3171990648874916e+02
1.590625000000000e+00  9.9863104138365555e-01 -1.3219336302919271e+02
1.596250000000000e+00  9.9869406678461958e-01 -1.3269543632822891e+02
1.601875000000000e+00  9.9893095943918631e-01 -1.3317776974583654e+02
1.607500000000000e+00  9.9906400605629031e-01 -1.3366455761927216e+02
1.613125000000000e+00  9.9905530444320134e-01 -1.3414357283077959e+02
1.618750000000000e+00  9.9907270899187128e-01 -1.3462749667050099e+02
1.624375000000000e+00  9.9920488669297958e-01 -1.3512126334676211e+02
1.630000000000000e+00  9.9936809402394411e-01 -1.3561488931293206e+02
1.635625000000000e+00  9.9933585262920765e-01 -1.3607644298694058e+02
1.641250000000000e+00  9.9922386332911839e-01 -1.3655183498409667e+02
1.646875000000000e+00  9.9921220476409289e-01 -1.3704333279646789e+02
1.652500000000000e+00  9.9935268614712591e-01 -1.3752469915276575e+02
1.658125000000000e+00  9.9936860610915745e-01 -1.3800524465017023e+02
1.663750000000000e+00  9.9936603962302983e-01 -1.3848357213909426e+02
1.669375000000000e+00  9.9923876942912915e-01 -1.3898000499698614e+02
1.675000000000000e+00  9.9927258298036692e-01 -1.3947614075712869e+02
1.680625000000000e+00  9.9910465499513268e-01 -1.3996116436624723e+02
1.686250000000000e+00  9.9916896198314031e-01 -1.4045165332507341e+02
1.691875000000000e+00  9.9895997885317245e-01 -1.4093042376985812e+02
1.697500000000000e+00  9.9878779808423013e-01 -1.4142576775719169e+02
1.703125000000000e+00  9.9877078020767551e-01 -1.4191819101603960e+02
1.708750000000000e+00  9.9878283322644656e-01 -1.4241966661732761e+02
1.714375000000000e+00  9.9873183815339006e-01 -1.4290845702096368e+02
1.720000000000000e+00  9.9860094688453194e-01 -1.4339730258668973e+02
1.725625000000000e+00  9.9832491958226199e-01 -1.4389446316002915e+02
1.731250000000000e+00  9.9841480415887596e-01 -1.4440165385980265e+02
1.736875000000000e+00  9.9836831459435948e-01 -1.4489577903990363e+02
1.742500000000000e+00  9.9822804967727929e-01 -1.4538538569962938e+02
1.748125000000000e+00  9.9815171861239527e-01 -1.4587897722254269e+02
1.753750000000000e+00  9.9820880779972432e-01 -1.4637697630294366e+02
1.759375000000000e+00  9.9825574561151653e-01 -1.4686958515409509e+02
1.765000000000000e+00  9.9833028738945839e-01 -1.4735001378755919e+02
1.770625000000000e+00  9.9839671371399508e-01 -1.4784406154159569e+02
1.776250000000000e+00  9.9860922998016433e-01 -1.4834466391154919e+02
1.781875000000000e+00  9.9866290779209055e-01 -1.4883686269506055e+02
1.787500000000000e+00  9.9868619424744853e-01 -1.4933560867691151e+02
1.793125000000000e+00  9.9854340118511176e-01 -1.4983028212397335e+02
1.798750000000000e+00  9.9837270781673126e-01 -1.5031768146207426e+02
1.804375000000000e+00  9.9839260604082525e-01 -1.5081101241632587e+02
1.810000000000000e+00  9.9829659258674031e-01 -1.5130231391571118e+02
1.815625000000000e+00  9.9835272523871565e-01 -1.5180007187182170e+02
1.821250000000000e+00  9.9829779464274626e-01 -1.5228420519902656e+02
1.826875000000000e+00  9.9803884478733285e-01 -1.5277992667003164e+02
1.832500000000000e+00  9.9812778846635464e-01 -1.5327199465651830e+02
1.838125000000000e+00  9.9814116486076032e-01 -1.5377338906787023e+02
1.843750000000000e+00  9.9825548391904184e-01 -1.5426374321503906e+02
1.849375000000000e+00  9.9817001456545951e-01 -1.5475430983016165e+02
1.855000000000000e+00  9.9808323760333906e-01 -1.5525838526535006e+02
1.860625000000000e+00  9.9809458090429493e-01 -1.5577265407322227e+02
1.866250000000000e+00  9.9810800766394758e-01 -1.5627532750434176e+02
1.871875000000000e+00  9.9804202123383656e-01 -1.5677219396683878e+02
1.877500000000000e+00  9.9795942800577897e-01 -1.5727258277575021e+02
1.883125000000000e+00  9.9801584604257965e-01 -1.5776881353160724e+02
1.888750000000000e+00  9.9785807908521784e-01 -1.5826399402608271e+02
1.894375000000000e+00  9.9788392942749693e-01 -1.5876736778221803e+02
1.900000000000000e+00  9.9775541541956259e-01 -1.5925627864825890e+02
1.905625000000000e+00  9.9771153075426466e-01 -1.5975860918723555e+02
1.911250000000000e+00  9.9767439287278414e-01 -1.6026695187251687e+02
1.916875000000000e+00  9.9762063013250002e-01 -1.6076967399843795e+02
1.922500000000000e+00  9.9768338330830719e-01 -1.6126023030822003e+02
1.928125000000000e+00  9.9771453508678065e-01 -1.6177453918438289e+02
1.933750000000000e+00  9.9799567481320417e-01 -1.6226981256336578e+02
1.939375000000000e+00  9.9788201989898895e-01 -1.6277475625118043e+02
1.945000000000000e+00  9.9794234420808081e-01 -1.6327960994495308e+02
1.950625000000000e+00  9.9787501313001536e-01 -1.6378093817077243e+02
1.956250000000000e+00  9.9781993116582857e-01 -1.6426305387764756e+02
1.961875000000000e+00  9.9774185090120149e-01 -1.6475825347308117e+02
1.967500000000000e+00  9.9769326233222855e-01 -1.6525643716352926e+02
1.973125000000000e+00  9.9770464413844917e-01 -1.6576525494092402e+02
1.978750000000000e+00  9.9771300795166873e-01 -1.6627107098246432e+02
1.984375000000000e+00  9.9788127092603252e-01 -1.6677974735628692e+02
1.990000000000000e+00  9.9783429309881533e-01 -1.6727542376126942e+02
1.995625000000000e+00  9.9766764089135118e-01 -1.6778124349975784e+02
2.001250000000000e+00  9.9760245433551009e-01 -1.6828926485507563e+02
2.006875000000000e+00  9.9757955569268419e-01 -1.6878975410681051e+02
2.012500000000000e+00  9.9764575288070068e-01 -1.6929572022565947e+02
2.018125000000000e+00  9.9758251281010502e-01 -1.6980834308387455e+02
2.023750000000000e+00  9.9750960645674858e-01 -1.7030944340465152e+02
2.029375000000000e+00  9.9722150138324672e-01 -1.7080431668759508e+02
2.035000000000000e+00  9.9707526019864878e-01 -1.7130890225314297e+02
2.040625000000000e+00  9.9701486007393136e-01 -1.7182252589017057e+02
2.046250000000000e+00  9.9702877823108227e-01 -1.7232550815664828e+02
2.051875000000000e+00  9.9696795912435843e-01 -1.7284148282135786e+02
2.057500000000000e+00  9.9688794740875819e-01 -1.7334621374986583e+02
2.063125000000000e+00  9.9686897255082807e-01 -1.7385970617206431e+02
2.068750000000000e+00  9.9669908053925726e-01 -1.7436481736333457e+02
2.074375000000000e+00  9.9657355047464846e-01 -1.7487165212967972e+02
2.080000000000000e+00  9.9640188686988229e-01 -1.7537975849271339e+02
2.085625000000000e+00  9.9626723816926011e-01 -1.7589662693585825e+02
2.091250000000000e+00  9.9630505667334901e-01 -1.7641392237581465e+02
2.096875000000000e+00  9.9619339089279590e-01 -1.7691636311049095e+02
2.102500000000000e+00  9.9593260574230469e-01 -1.7743410938734178e+02
2.108125000000000e+00  9.9584358757800118e-01 -1.7795402749793988e+02
2.113750000000000e+00  9.9575159236265609e-01 -1.7845981252796145e+02
2.119375000000000e+00  9.9561023243301883e-01 -1.7898132834983988e+02
2.125000000000000e+00  9.9582576138651624e-01 -1.7950484193767767e+02
2.130625000000000e+00  9.9578859105345430e-01  1.7998946445990794e+02
2.136250000000000e+00  9.9570775734342798e-01  1.7947844122816673e+02
2.141875000000000e+00  9.9573830732831881e-01  1.7896214014538003e+02
2.147500000000000e+00  9.9568894051811641e-01  1.7846322905599013e+02
2.153125000000000e+00  9.9556910451695846e-01  1.7795346317376485e+02
2.158750000000000e+00  9.9533566115976813e-01  1.7745542961884126e+02
2.164375000000000e+00  9.9512949487639302e-01  1.7694297664648676e+02
2.170000000000000e+00  9.9511530916225766e-01  1.7643955843663420e+02
2.175625000000000e+00  9.9503006801778826e-01  1.7593203638172761e+02
2.181250000000000e+00  9.9471870676171004e-01  1.7542306493235068e+02
2.186875000000000e+00  9.9464870099842217e-01  1.7490759015313213e+02
2.192500000000000e+00  9.9456213322939369e-01  1.7439506848502779e+02
2.198125000000000e+00  9.9448146719818131e-01  1.7388911674386634e+02
2.203750000000000e+00  9.9420552988029343e-01  1.7338129846880338e+02
2.209375000000000e+00  9.9403046529746064e-01  1.7286276553199210e+02
2.215000000000000e+00  9.9381360566090493e-01  1.7235733906776446e+02
2.220625000000000e+00  9.9344974908134998e-01  1.7184276648943580e+02
2.226250000000000e+00  9.9330263943345265e-01  1.7131125274433248e+02
2.231875000000000e+00  9.9295118042118358e-01  1.7079475191439002e+02
2.237500000000000e+00  9.9271054495506394e-01  1.7027822479349186e+02
2.243125000000000e+00  9.9243846529670388e-01  1.6974778683488449e+02
2.248750000000000e+00  9.9226434336856517e-01  1.6922262628294027e+02
2.254375000000000e+00  9.9201200558941660e-01  1.6869006752597980e+02
2.260000000000000e+00  9.9182180786119245e-01  1.6815519659956945e+02
2.265625000000000e+00  9.9157633177354865e-01  1.6763281201737303e+02
2.271250000000000e+00  9.9139468599268188e-01  1.6709910973805310e+02
2.276875000000000e+00  9.9141206485990940e-01  1.6657588409107930e+02
2.282500000000000e+00  9.9112727794034838e-01  1.6605446646589533e+02
2.288125000000000e+00  9.9096179189308564e-01  1.6553152462810928e+02
2.293750000000000e+00  9.9088098549656167e-01  1.6500117698963254e+02
2.299375000000000e+00  9.9083445121773195e-01  1.6446814308802834e+02
2.305000000000000e+00  9.9077239929280303e-01  1.6395545600097864e+02
2.310625000000000e+00  9.9052883130405356e-01  1.6342536784957042e+02
2.316250000000000e+00  9.9031175032713981e-01  1.6289402573049725e+02
2.321875000000000e+00  9.9026847015085417e-01  1.6236968447730999e+02
2.327500000000000e+00  9.9010561166071243e-01  1.6184707403371482e+02
2.333125000000000e+00  9.8987123736112481e-01  1.6131759456160603e+02
2.338750000000000e+00  9.8978911119574919e-01  1.6078740400896277e+02
2.344375000000000e+00  9.8963343097172085e-01  1.6026702126694528e+02
2.350000000000000e+00  9.8952021230194420e-01  1.5974756381141577e+02
2.355625000000000e+00  9.8916958145244360e-01  1.5924182235865925e+02
2.361250000000000e+00  9.8888049032902636e-01  1.5870884478027378e+02
2.366875000000000e+00  9.8872797607884721e-01  1.5818249914585090e+02
2.372500000000000e+00  9.8849458851382821e-01  1.5765594534837112e+02
2.378125000000000e+00  9.8828409311390708e-01  1.5712386414377710e+02
2.383750000000000e+00  9.8804683741782628e-01  1.5658878990479275e+02
2.389375000000000e+00  9.8776569885083942e-01  1.5606177526419495e+02
2.395000000000000e+00  9.8740651174410166e-01  1.5553801896911324e+02
2.400625000000000e+00  9.8706709213030408e-01  1.5499659060101467e+02
2.406250000000000e+00  9.8680638200140991e-01  1.5446832128145226e+02
2.411875000000000e+00  9.8646451979561645e-01  1.5393118221883793e+02
2.417500000000000e+00  9.8604569923935503e-01  1.5338895296833738e+02
2.423125000000000e+00  9.8570133349051825e-01  1.5284788993186751e+02
2.428750000000000e+00  9.8534433619304018e-01  1.5232146303187773e+02
2.434375000000000e+00  9.8487182314662125e-01  1.5178245336474603e+02
2.440000000000000e+00  9.8447027956321231e-01  1.5122624516801380e+02
2.445625000000000e+00  9.8423155333582990e-01  1.5068414977380252e+02
2.451250000000000e+00  9.8397510595374149e-01  1.5013830115712744e+02
2.456875000000000e+00  9.8384520156766475e-01  1.4959554940979831e+02
2.462500000000000e+00  9.8337445518699917e-01  1.4905636950465146e+02
2.468125000000000e+00  9.8313434032100455e-01  1.4850307056538219e+02
2.473750000000000e+00  9.8292751931755329e-01  1.4796840655085816e+02
2.479375000000000e+00  9.8270560475088820e-01  1.4743614718184187e+02
2.485000000000000e+00  9.8246514062049506e-01  1.4689338947307087e+02
2.490625000000000e+00  9.8229615353142408e-01  1.4636473260832435e+02
2.496250000000000e+00  9.8214502491107969e-01  1.4582257482131965e+02
2.501875000000000e+00  9.8204907355221982e-01  1.4527680705900983e+02
2.507500000000000e+00  9.8190128969446433e-01  1.4474261336982454e+02
2.513125000000000e+00  9.8176749383382034e-01  1.4421408394095889e+02
2.518750000000000e+00  9.8148294111018197e-01  1.4367097891241750e+02
2.524375000000000e+00  9.8117675902746238e-01  1.4312725103765320e+02
2.530000000000000e+00  9.8113436731330050e-01  1.4259331097832111e+02
2.535625000000000e+00  9.8086391185484534e-01  1.4206544775908736e+02
2.541250000000000e+00  9.8066629313808029e-01  1.4152091121320379e+02
2.546875000000000e+00  9.8036188040913674e-01  1.4097613183131020e+02
2.552500000000000e+00  9.8009909969994446e-01  1.4042879045766006e+02
2.558125000000000e+00  9.7989015110758615e-01  1.3988644900964653e+02
2.563750000000000e+00  9.7946428808791519e-01  1.3935920465148945e+02
2.569375000000000e+00  9.7900083546145000e-01  1.3880164165671579e+02
2.575000000000000e+00  9.7866594755092606e-01  1.3823589250854124e+02
2.580625000000000e+00  9.7831334994826358e-01  1.3769036340243107e+02
2.586250000000000e+00  9.7799671618402995e-01  1.3712942512845339e+02
2.591875000000000e+00  9.7745090176629990e-01  1.3656996104532490e+02
2.597500000000000e+00  9.7685002528806386e-01  1.3601893992670571e+02
