# GHz S MA R 50

1.000000000000000e+00  1.0173303097355764e+00 -1.0494669569802772e+02
1.004375000000000e+00  1.0158771114866336e+00 -1.0550374943473976e+02
1.008750000000000e+00  1.0130944568995810e+00 -1.0584321674191447e+02
1.013125000000000e+00  1.0074217624745596e+00 -1.0668710836209598e+02
1.017500000000000e+00  1.0031570967919670e+00 -1.0713732941322145e+02
1.021875000000000e+00  9.9690692844501116e-01 -1.0767838586488227e+02
1.026250000000000e+00  1.0007029657246873e+00 -1.0858524118587356e+02
1.030625000000000e+00  1.0032758867417193e+00 -1.0926718107417474e+02
1.035000000000000e+00  1.0006931727190918e+00 -1.1007237802285253e+02
1.039375000000000e+00  1.0007646755093751e+00 -1.1055154636473559e+02
1.043750000000000e+00  1.0078513596310050e+00 -1.1077493959316176e+02
1.048125000000000e+00  1.0020258339866839e+00 -1.1101721514303298e+02
1.052500000000000e+00  1.0044603567292558e+00 -1.1151856304796074e+02
1.056875000000000e+00  1.0053375543314398e+00 -1.1207012126954245e+02
1.061250000000000e+00  9.9910498684303262e-01 -1.1219431875744857e+02
1.065625000000000e+00  1.0009648713150197e+00 -1.1289788281297064e+02
1.070000000000000e+00  9.9969254550572817e-01 -1.1335476198337649e+02
1.074375000000000e+00  9.9500203846852642e-01 -1.1379369589981786e+02
1.078750000000000e+00  9.9417610423663239e-01 -1.1409374257606515e+02
1.083125000000000e+00  9.9391743875189864e-01 -1.1462376469281877e+02
1.087500000000000e+00  9.9602395542439293e-01 -1.1457209794145045e+02
1.091875000000000e+00  9.9918359347153818e-01 -1.1545837945073212e+02
1.096250000000000e+00  1.0030263154971009e+00 -1.1581972648618066e+02
1.100625000000000e+00  9.9487806681671231e-01 -1.1595118008616339e+02
1.105000000000000e+00  9.9209171728315293e-01 -1.1661155492231772e+02
1.109375000000000e+00  9.9392530830058856e-01 -1.1711656788122552e+02
1.113750000000000e+00  9.9141045474415057e-01 -1.1787920825169472e+02
1.118125000000000e+00  9.8657548654205607e-01 -1.1860565048113577e+02
1.122500000000000e+00  9.8733111316923761e-01 -1.1910741157125422e+02
1.126875000000000e+00  9.8421006107567610e-01 -1.1962059946008957e+02
1.131250000000000e+00  9.8252147914752908e-01 -1.2037134369721191e+02
1.135625000000000e+00  9.8850156802930156e-01 -1.2066070018113665e+02
1.140000000000000e+00  9.9100409214600227e-01 -1.2112987990642038e+02
1.144375000000000e+00  9.8551837664105690e-01 -1.2136631774635819e+02
1.148750000000000e+00  9.9141916897129345e-01 -1.2215737195603030e+02
1.153125000000000e+00  9.9812610754027453e-01 -1.2268038782007314e+02
1.157500000000000e+00  9.9968610247710776e-01 -1.2313121562572591e+02
1.161875000000000e+00  9.9936668870048173e-01 -1.2391134748091407e+02
1.166250000000000e+00  1.0024466391351117e+00 -1.2430253317221589e+02
1.170625000000000e+00  1.0023166497105915e+00 -1.2496701025675621e+02
1.175000000000000e+00  9.9941482782474367e-01 -1.2557021880397375e+02
1.179375000000000e+00  9.9230494611340525e-01 -1.2584043056977340e+02
1.183750000000000e+00  9.8810604204700847e-01 -1.2562366418420919e+02
1.188125000000000e+00  9.8583600164895713e-01 -1.2616077410869106e+02
1.192500000000000e+00  9.8674048358679545e-01 -1.2648961837106373e+02
1.196875000000000e+00  9.8343008060553683e-01 -1.2716824564418164e+02
1.201250000000000e+00  9.9231618746919725e-01 -1.2774779418707163e+02
1.205625000000000e+00  9.8835737939735202e-01 -1.2819756837386501e+02
1.210000000000000e+00  9.8569931627124119e-01 -1.2869554590911204e+02
1.214375000000000e+00  9.8225043613505347e-01 -1.2914549543942772e+02
1.218750000000000e+00  9.8349837692188147e-01 -1.2957361301361681e+02
1.223125000000000e+00  9.7815077179481635e-01 -1.3014797298486158e+02
1.227500000000000e+00  9.7555654259998759e-01 -1.3083808243996614e+02
1.231875000000000e+00  9.7183510960653630e-01 -1.3138192255985160e+02
1.236250000000000e+00  9.7775780243568899e-01 -1.3120745854376767e+02
1.240625000000000e+00  9.7339980159966899e-01 -1.3119809191956642e+02
1.245000000000000e+00  9.7462664896577356e-01 -1.3144059990107505e+02
1.249375000000000e+00  9.7653500518240388e-01 -1.3168855706703866e+02
1.253750000000000e+00  9.7863587004215480e-01 -1.3256598366867041e+02
1.258125000000000e+00  9.8512206462580210e-01 -1.3345984468477340e+02
1.262500000000000e+00  9.8714558227776439e-01 -1.3378624018826855e+02
1.266875000000000e+00  9.8418291617149867e-01 -1.3407283464843084e+02
1.271250000000000e+00  9.8554415989719901e-01 -1.3445677967176633e+02
1.275625000000000e+00  9.7697496858784805e-01 -1.3446846755061708e+02
1.280000000000000e+00  9.7760947942772081e-01 -1.3455734572765374e+02
1.284375000000000e+00  9.8673415230519002e-01 -1.3541475279961580e+02
1.288750000000000e+00  9.8402394362453249e-01 -1.3581421979589430e+02
1.293125000000000e+00  9.8914030352485482e-01 -1.3634884287558853e+02
1.297500000000000e+00  9.9082142594656708e-01 -1.3687585333609272e+02
1.301875000000000e+00  9.8915236467472667e-01 -1.3748944433281582e+02
1.306250000000000e+00  9.9565420082940781e-01 -1.3786228120175636e+02
1.310625000000000e+00  9.9224688744594425e-01 -1.3867714622692515e+02
1.315000000000000e+00  9.9198768745764121e-01 -1.3957784728604028e+02
1.319375000000000e+00  9.9550567592670736e-01 -1.4003026129087903e+02
1.323750000000000e+00  1.0000136163090003e+00 -1.4033278260316303e+02
1.328125000000000e+00  9.9600410291763719e-01 -1.4031940351724495e+02
1.332500000000000e+00  9.8988702238378479e-01 -1.4091590892943799e+02
1.336875000000000e+00  9.8474448891412492e-01 -1.4087875175845966e+02
1.341250000000000e+00  9.8433398074259082e-01 -1.4156351568073191e+02
1.345625000000000e+00  9.8487193662199934e-01 -1.4201757520985123e+02
1.350000000000000e+00  9.8493326011332505e-01 -1.4281339149399528e+02
1.354375000000000e+00  9.9013552746060085e-01 -1.4331058259737199e+02
1.358750000000000e+00  9.8328011131402537e-01 -1.4351385389300395e+02
1.363125000000000e+00  9.8964155009169097e-01 -1.4390611783651198e+02
1.367500000000000e+00  9.9132198688838358e-01 -1.4432289374491268e+02
1.371875000000000e+00  9.9563771682530411e-01 -1.4455276196859620e+02
1.376250000000000e+00  9.9790344868711378e-01 -1.4448187638563488e+02
1.380625000000000e+00  9.9239124295640957e-01 -1.4523185683454363e+02
1.385000000000000e+00  9.9231200910661088e-01 -1.4587399739385850e+02
1.389375000000000e+00  9.9308839020191542e-01 -1.4639197188746897e+02
1.393750000000000e+00  9.9407562734746668e-01 -1.4696853732902400e+02
1.398125000000000e+00  9.9519431561206251e-01 -1.4746587776911727e+02
1.402500000000000e+00  1.0036421495223855e+00 -1.4743874823222225e+02
1.406875000000000e+00  1.0030440123269324e+00 -1.4780503096915001e+02
1.411250000000000e+00  1.0086085295536169e+00 -1.4881385447370326e+02
1.415625000000000e+00  1.0129927876062499e+00 -1.4923339582417739e+02
1.420000000000000e+00  1.0135486657449690e+00 -1.4942057059592889e+02
1.424375000000000e+00  1.0199300896603425e+00 -1.4960633922625726e+02
1.428750000000000e+00  1.0118670649420596e+00 -1.4997691112353272e+02
1.433125000000000e+00  1.0100360029693329e+00 -1.5035603870426533e+02
1.437500000000000e+00  1.0081940495157564e+00 -1.5072084908759743e+02
1.441875000000000e+00  1.0043382318246536e+00 -1.5135799982085658e+02
1.446250000000000e+00  1.0020917393167585e+00 -1.5197790927010490e+02
1.450625000000000e+00  9.9668829929324898e-01 -1.5240397619071240e+02
1.455000000000000e+00  9.9653447676467011e-01 -1.5250819539340119e+02
1.459375000000000e+00  9.9669324374898627e-01 -1.5289987110221898e+02
1.463750000000000e+00  1.0002135988376595e+00 -1.5354127350627826e+02
1.468125000000000e+00  9.9431661198541643e-01 -1.5433781391462063e+02
1.472500000000000e+00  9.9079384743048848e-01 -1.5481071147251265e+02
1.476875000000000e+00  9.8434607334626345e-01 -1.5570276189327848e+02
1.481250000000000e+00  9.8598714968346224e-01 -1.5624277907504725e+02
1.485625000000000e+00  9.8391460445444046e-01 -1.5649619081902796e+02
1.490000000000000e+00  9.8064836247527754e-01 -1.5690255098060595e+02
1.494375000000000e+00  9.8078921436289768e-01 -1.5757884651455035e+02
1.498750000000000e+00  9.7727808150439333e-01 -1.5805439699890303e+02
1.503125000000000e+00  9.8282709827255144e-01 -1.5845462574163400e+02
1.507500000000000e+00  9.8747244870782980e-01 -1.5885557287839319e+02
1.511875000000000e+00  9.8621023295023003e-01 -1.5951201850467075e+02
1.516250000000000e+00  9.8820887553158110e-01 -1.5977985930590518e+02
1.520625000000000e+00  9.8133305149559147e-01 -1.6005708180721112e+02
1.525000000000000e+00  9.8565437845269699e-01 -1.6094403320835622e+02
1.529375000000000e+00  9.8929502957559112e-01 -1.6143873596333347e+02
1.533750000000000e+00  9.8419511614131761e-01 -1.6179033861889104e+02
1.538125000000000e+00  9.7844833725154634e-01 -1.6170406895138561e+02
1.542500000000000e+00  9.7761908974365097e-01 -1.6172002349058394e+02
1.546875000000000e+00  9.8289902572280097e-01 -1.6234702474924669e+02
1.551250000000000e+00  9.8833308065148795e-01 -1.6276797944751840e+02
1.555625000000000e+00  9.8757403592637028e-01 -1.6316542607813139e+02
1.560000000000000e+00  9.9090225458772763e-01 -1.6370775047823423e+02
1.564375000000000e+00  9.9085911299405705e-01 -1.6429263623395096e+02
1.568750000000000e+00  9.8586637528320265e-01 -1.6480181430412037e+02
1.573125000000000e+00  9.8722099313571388e-01 -1.6515141261297680e+02
1.577500000000000e+00  9.8654619015844036e-01 -1.6563189986925991e+02
1.581875000000000e+00  9.8583744846107790e-01 -1.6623390603838064e+02
1.586250000000000e+00  9.8133669674463286e-01 -1.6656920392721872e+02
1.590625000000000e+00  9.7334898797691749e-01 -1.6715066661805861e+02
1.595000000000000e+00  9.7626141722889281e-01 -1.6736959104692204e+02
1.599375000000000e+00  9.7619371364950702e-01 -1.6748615182115989e+02
1.603750000000000e+00  9.8144844064166570e-01 -1.6799719740502260e+02
1.608125000000000e+00  9.8566271034664710e-01 -1.6861805166509362e+02
1.612500000000000e+00  9.8119652474834151e-01 -1.6921570213243743e+02
1.616875000000000e+00  9.8146520660886205e-01 -1.6988716653540973e+02
1.621250000000000e+00  9.7809688189495758e-01 -1.7044892192355275e+02
1.625625000000000e+00  9.7965932486902529e-01 -1.7107729390381829e+02
1.630000000000000e+00  9.7889711363563481e-01 -1.7116610831189357e+02
1.634375000000000e+00  9.7846987992374002e-01 -1.7132856257801362e+02
1.638750000000000e+00  9.7681267061210064e-01 -1.7168838942785746e+02
1.643125000000000e+00  9.7485812611472455e-01 -1.7206115512684553e+02
1.647500000000000e+00  9.7237405360117324e-01 -1.7266487954816185e+02
1.651875000000000e+00  9.7068506306551805e-01 -1.7325101573898769e+02
1.656250000000000e+00  9.6726289942099886e-01 -1.7380194346561385e+02
1.660625000000000e+00  9.6870065090400592e-01 -1.7429210096229147e+02
1.665000000000000e+00  9.7212245045220669e-01 -1.7463572453290394e+02
1.669375000000000e+00  9.7531839516916674e-01 -1.7528325615387416e+02
1.673750000000000e+00  9.6667534854303749e-01 -1.7595214275111852e+02
1.678125000000000e+00  9.5935931761797122e-01 -1.7619526045771366e+02
1.682500000000000e+00  9.5527604846991399e-01 -1.7640825177882434e+02
1.686875000000000e+00  9.6201253667712816e-01 -1.7693046794056474e+02
1.691250000000000e+00  9.6087005231212974e-01 -1.7697783946959518e+02
1.695625000000000e+00  9.5835946324305210e-01 -1.7716173925977486e+02
1.700000000000000e+00  9.5604147234658610e-01 -1.7742766698677724e+02
1.704375000000000e+00  9.6091379401964172e-01 -1.7821827382914032e+02
1.708750000000000e+00  9.6282795369391616e-01 -1.7909376118236460e+02
1.713125000000000e+00  9.6208659624059534e-01 -1.7963105844616425e+02
1.717500000000000e+00  9.6525252183137311e-01 -1.7971378614995649e+02
1.721875000000000e+00  9.6930216475419495e-01  1.7986109922612965e+02
1.726250000000000e+00  9.7022320648259952e-01  1.7976210998249869e+02
1.730625000000000e+00  9.6955736082468058e-01  1.7928762696081745e+02
1.735000000000000e+00  9.6882605446402825e-01  1.7884124526549613e+02
1.739375000000000e+00  9.7259739713061921e-01  1.7812456741582932e+02
1.743750000000000e+00  9.7042999464196855e-01  1.7786616621391804e+02
1.748125000000000e+00  9.7246995543623382e-01  1.7751794480812629e+02
1.752500000000000e+00  9.7187867930534588e-01  1.7710938379720980e+02
1.756875000000000e+00  9.7600662146222961e-01  1.7640924968100106e+02
1.761250000000000e+00  9.7063614865585879e-01  1.7614925748232957e+02
1.765625000000000e+00  9.6958051351946750e-01  1.7542535968280490e+02
1.770000000000000e+00  9.7015651427710958e-01  1.7479496478176230e+02
1.774375000000000e+00  9.6706696889365329e-01  1.7427879216859733e+02
1.778750000000000e+00  9.6223955117854920e-01  1.7374569506934068e+02
1.783125000000000e+00  9.5563005762667330e-01  1.7343895835386377e+02
1.787500000000000e+00  9.5581609400361178e-01  1.7297414064089443e+02
1.791875000000000e+00  9.5731515468597428e-01  1.7230747051740315e+02
1.796250000000000e+00  9.5522632989688017e-01  1.7175081744601732e+02
1.800625000000000e+00  9.5505432623873610e-01  1.7110684835534332e+02
1.805000000000000e+00  9.5718964462914913e-01  1.7072357174160152e+02
1.809375000000000e+00  9.5396867381067563e-01  1.7053406187068674e+02
1.813750000000000e+00  9.4728802231728093e-01  1.7065754136011543e+02
1.818125000000000e+00  9.4665868329356972e-01  1.6994857945825547e+02
1.822500000000000e+00  9.4394313528645302e-01  1.6920738372861757e+02
1.826875000000000e+00  9.4205774867669101e-01  1.6855938927220475e+02
1.831250000000000e+00  9.3750639207965547e-01  1.6819078089910144e+02
1.835625000000000e+00  9.3430404497335307e-01  1.6792589504271814e+02
1.840000000000000e+00  9.3762729545481249e-01  1.6732980492301817e+02
1.844375000000000e+00  9.3176664593715042e-01  1.6708710385873874e+02
1.848750000000000e+00  9.2934848360282962e-01  1.6686365685685095e+02
1.853125000000000e+00  9.2921593370904054e-01  1.6674191728541962e+02
1.857500000000000e+00  9.3211014280622506e-01  1.6663348491212295e+02
1.861875000000000e+00  9.2839623483273037e-01  1.6646668678689636e+02
1.866250000000000e+00  9.2499645182534751e-01  1.6612605410032594e+02
1.870625000000000e+00  9.2383323510754745e-01  1.6582925641141065e+02
1.875000000000000e+00  9.2269624583826670e-01  1.6558457550214229e+02
1.879375000000000e+00  9.2385211373086473e-01  1.6551114333595089e+02
1.883750000000000e+00  9.2842310838529618e-01  1.6500768215704417e+02
1.888125000000000e+00  9.2994577212323648e-01  1.6439345879229916e+02
1.892500000000000e+00  9.3177133918749899e-01  1.6431958835917172e+02
1.896875000000000e+00  9.3474206621760259e-01  1.6430075975557952e+02
1.901250000000000e+00  9.4175658493851222e-01  1.6394596004664646e+02
1.905625000000000e+00  9.4336591100304290e-01  1.6379465889101922e+02
1.910000000000000e+00  9.4787350105900714e-01  1.6333927393130492e+02
1.914375000000000e+00  9.4688352222588978e-01  1.6321143458770521e+02
1.918750000000000e+00  9.5231525231424508e-01  1.6283787480543884e+02
1.923125000000000e+00  9.5655192662591981e-01  1.6239342328464633e+02
1.927500000000000e+00  9.6070752163715678e-01  1.6192534656429007e+02
1.931875000000000e+00  9.5975260254126238e-01  1.6130579602557660e+02
1.936250000000000e+00  9.6311076996166201e-01  1.6079571827432949e+02
1.940625000000000e+00  9.6253097909298302e-01  1.6033676674472770e+02
1.945000000000000e+00  9.6096756401561323e-01  1.5971484371662061e+02
1.949375000000000e+00  9.6150543227802354e-01  1.5914788874520823e+02
1.953750000000000e+00  9.6256999825256973e-01  1.5848632520972828e+02
1.958125000000000e+00  9.6231494479619217e-01  1.5812638500090276e+02
1.962500000000000e+00  9.6413342635794341e-01  1.5757655957651446e+02
1.966875000000000e+00  9.6427214105556280e-01  1.5693307880692313e+02
1.971250000000000e+00  9.6327013193414024e-01  1.5648869600999777e+02
1.975625000000000e+00  9.5704624495144797e-01  1.5601692005120282e+02
1.980000000000000e+00  9.5677090869843395e-01  1.5562093042632620e+02
1.984375000000000e+00  9.5370922006440306e-01  1.5516032218737215e+02
1.988750000000000e+00  9.5311691425364498e-01  1.5478139833557998e+02
1.993125000000000e+00  9.5528678038487280e-01  1.5420196847306178e+02
1.997500000000000e+00  9.5284196098387131e-01  1.5354820090375455e+02
2.001875000000000e+00  9.4955972347909401e-01  1.5304131108892739e+02
2.006250000000000e+00  9.4713652065264498e-01  1.5261591549297324e+02
2.010625000000000e+00  9.4583891809919862e-01  1.5212858173118622e+02
2.015000000000000e+00  9.4645600327552293e-01  1.5155747748722408e+02
2.019375000000000e+00  9.4938736858246719e-01  1.5115612406581988e+02
2.023750000000000e+00  9.4775762070837388e-01  1.5072606240634863e+02
2.028125000000000e+00  9.4542796684899455e-01  1.5025144835240715e+02
2.032500000000000e+00  9.3987842745158534e-01  1.4958661674084203e+02
2.036875000000000e+00  9.3782975933949253e-01  1.4929652006965810e+02
2.041250000000000e+00  9.3656697733906369e-01  1.4889152188811531e+02
2.045625000000000e+00  9.3567265051340154e-01  1.4847121717838664e+02
2.050000000000000e+00  9.3961333506815303e-01  1.4792715548835702e+02
2.054375000000000e+00  9.3899078105188916e-01  1.4736099478855192e+02
2.058750000000000e+00  9.3954703739928225e-01  1.4675744583588707e+02
2.063125000000000e+00  9.4074221990346329e-01  1.4612280490181118e+02
2.067500000000000e+00  9.3500171866886894e-01  1.4548781707869983e+02
2.071875000000000e+00  9.3637135089201551e-01  1.4513678811759817e+02
2.076250000000000e+00  9.3579258509344332e-01  1.4452227182314257e+02
2.080625000000000e+00  9.3827045888674687e-01  1.4433927338493845e+02
2.085000000000000e+00  9.3990018134931286e-01  1.4385267530070854e+02
2.089375000000000e+00  9.3757204384949822e-01  1.4353330866641522e+02
2.093750000000000e+00  9.3679982602842304e-01  1.4324022538991429e+02
2.098125000000000e+00  9.3851027740746606e-01  1.4274220420500052e+02
2.102500000000000e+00  9.3438446604676584e-01  1.4231343248022219e+02
2.106875000000000e+00  9.3612480729212277e-01  1.4208144019003336e+02
2.111250000000000e+00  9.3647104709456297e-01  1.4160409000729658e+02
2.115625000000000e+00  9.3392738162809319e-01  1.4112528204589401e+02
2.120000000000000e+00  9.3471002929498115e-01  1.4059489955209435e+02
2.124375000000000e+00  9.2935372219214596e-01  1.4016889409854613e+02
2.128750000000000e+00  9.3058926761122462e-01  1.3968993748995177e+02
2.133125000000000e+00  9.2972585905503724e-01  1.3919410321105440e+02
2.137500000000000e+00  9.2729628659595309e-01  1.3868387471301230e+02
2.141875000000000e+00  9.2925132859928250e-01  1.3839083765555810e+02
2.146250000000000e+00  9.2738017146873408e-01  1.3799442859357578e+02
2.150625000000000e+00  9.2517150242684221e-01  1.3774868619733590e+02
2.155000000000000e+00  9.2190180957733792e-01  1.3691281617167448e+02
2.159375000000000e+00  9.2046365203005809e-01  1.3647637543139138e+02
2.163750000000000e+00  9.2104598579533370e-01  1.3604845949563207e+02
2.168125000000000e+00  9.1767038254643207e-01  1.3533279008569244e+02
2.172500000000000e+00  9.1694543189144595e-01  1.3513753549574841e+02
2.176875000000000e+00  9.1747166993295559e-01  1.3471969547792239e+02
2.181250000000000e+00  9.1520815613118123e-01  1.3436369160603144e+02
2.185625000000000e+00  9.1063669830307969e-01  1.3376708846337317e+02
2.190000000000000e+00  9.0975137482796986e-01  1.3333765038184964e+02
2.194375000000000e+00  9.0829001800620457e-01  1.3294681798048794e+02
2.198750000000000e+00  9.0747093814398327e-01  1.3246771792569405e+02
2.203125000000000e+00  9.0424250363055125e-01  1.3216026410423800e+02
2.207500000000000e+00  9.0263477293450900e-01  1.3195769529091353e+02
2.211875000000000e+00  9.0102373163430960e-01  1.3165126674124028e+02
2.216250000000000e+00  8.9962649451268539e-01  1.3137205662420581e+02
2.220625000000000e+00  8.9751804251071388e-01  1.3097003313766072e+02
2.225000000000000e+00  8.9831876903171926e-01  1.3048918898004283e+02
2.229375000000000e+00  8.9731050066895579e-01  1.3029334328436815e+02
2.233750000000000e+00  8.9681419889614289e-01  1.2999878887235943e+02
2.238125000000000e+00  8.9682230886002356e-01  1.2970122458930999e+02
2.242500000000000e+00  8.9451247616186524e-01  1.2941813895380997e+02
