!Vishay Thin-Film
!FC Family
!Case Size 0402
!Assembly Style Flip-Chip
!10/21/2015
!thinfilm@vishay.com
# GHz S MA R 50

0.1	0.66666362	-0.17699948	0.33334592	0.35398567	0.33334592	0.35398567	0.66666362	-0.17699948	
0.499	0.66659088	-0.88316572	0.33364654	1.7646818	0.33364654	1.7646818	0.66659088	-0.88316572	
0.898	0.66642133	-1.5890855	0.33434611	3.1685866	0.33434611	3.1685866	0.66642133	-1.5890855	
1.297	0.66615517	-2.2945621	0.33544093	4.5603873	0.33544093	4.5603873	0.66615517	-2.2945621	
1.696	0.66579276	-2.9993997	0.33692528	5.9349679	0.33692528	5.9349679	0.66579276	-2.9993997	
2.095	0.66533455	-3.7034035	0.33879151	7.2874861	0.33879151	7.2874861	0.66533455	-3.7034035	
2.494	0.66478112	-4.4063801	0.34103022	8.6134406	0.34103022	8.6134406	0.66478112	-4.4063801	
2.893	0.66413318	-5.1081378	0.34363036	9.9087251	0.34363036	9.9087251	0.66413318	-5.1081378	
3.292	0.66339155	-5.808487	0.34657945	11.16967	0.34657945	11.16967	0.66339155	-5.808487	
3.691	0.66255714	-6.5072404	0.3498638	12.39307	0.3498638	12.39307	0.66255714	-6.5072404	
4.09	0.66163099	-7.2042134	0.35346867	13.576195	0.35346867	13.576195	0.66163099	-7.2042134	
4.489	0.66061426	-7.8992243	0.35737849	14.716797	0.35737849	14.716797	0.66061426	-7.8992243	
4.888	0.65950819	-8.5920944	0.36157708	15.813094	0.36157708	15.813094	0.65950819	-8.5920944	
5.287	0.65831412	-9.2826488	0.36604781	16.863757	0.36604781	16.863757	0.65831412	-9.2826488	
5.686	0.65703349	-9.9707162	0.37077379	17.867877	0.37077379	17.867877	0.65703349	-9.9707162	
6.085	0.65566783	-10.656129	0.37573801	18.824939	0.37573801	18.824939	0.65566783	-10.656129	
6.484	0.65421875	-11.338724	0.38092355	19.734781	0.38092355	19.734781	0.65421875	-11.338724	
6.883	0.65268794	-12.018342	0.38631362	20.597561	0.38631362	20.597561	0.65268794	-12.018342	
7.282	0.65107717	-12.694829	0.39189171	21.413714	0.39189171	21.413714	0.65107717	-12.694829	
7.681	0.64938826	-13.368035	0.3976417	22.183919	0.3976417	22.183919	0.64938826	-13.368035	
8.08	0.64762311	-14.037815	0.4035479	22.909057	0.4035479	22.909057	0.64762311	-14.037815	
8.479	0.64578368	-14.70403	0.40959511	23.59018	0.40959511	23.59018	0.64578368	-14.70403	
8.878	0.64387198	-15.366544	0.41576872	24.228478	0.41576872	24.228478	0.64387198	-15.366544	
9.277	0.64189004	-16.025228	0.42205465	24.825251	0.42205465	24.825251	0.64189004	-16.025228	
9.676	0.63983998	-16.679958	0.42843948	25.381883	0.42843948	25.381883	0.63983998	-16.679958	
10.075	0.63772391	-17.330614	0.43491038	25.899815	0.43491038	25.899815	0.63772391	-17.330614	
10.474	0.63554399	-17.977084	0.44145515	26.380532	0.44145515	26.380532	0.63554399	-17.977084	
10.873	0.63330241	-18.619258	0.44806223	26.825538	0.44806223	26.825538	0.63330241	-18.619258	
11.272	0.63100137	-19.257035	0.45472068	27.236346	0.45472068	27.236346	0.63100137	-19.257035	
11.671	0.62864309	-19.890318	0.46142016	27.614465	0.46142016	27.614465	0.62864309	-19.890318	
12.07	0.62622979	-20.519014	0.46815095	27.961387	0.46815095	27.961387	0.62622979	-20.519014	
12.469	0.62376371	-21.143037	0.4749039	28.278579	0.4749039	28.278579	0.62376371	-21.143037	
12.868	0.62124708	-21.762306	0.48167044	28.567481	0.48167044	28.567481	0.62124708	-21.762306	
13.267	0.61868212	-22.376747	0.48844252	28.829492	0.48844252	28.829492	0.61868212	-22.376747	
13.666	0.61607105	-22.986288	0.49521265	29.065972	0.49521265	29.065972	0.61607105	-22.986288	
14.065	0.61341608	-23.590865	0.50197383	29.27824	0.50197383	29.27824	0.61341608	-23.590865	
14.464	0.6107194	-24.190418	0.50871954	29.467564	0.50871954	29.467564	0.6107194	-24.190418	
14.863	0.60798319	-24.784893	0.51544371	29.635169	0.51544371	29.635169	0.60798319	-24.784893	
15.262	0.60520958	-25.374239	0.52214075	29.782229	0.52214075	29.782229	0.60520958	-25.374239	
15.661	0.60240069	-25.958411	0.52880545	29.909871	0.52880545	29.909871	0.60240069	-25.958411	
16.06	0.59955863	-26.53737	0.53543301	30.019173	0.53543301	30.019173	0.59955863	-26.53737	
16.459	0.59668545	-27.11108	0.54201902	30.111165	0.54201902	30.111165	0.59668545	-27.11108	
16.858	0.59378318	-27.67951	0.54855942	30.186832	0.54855942	30.186832	0.59378318	-27.67951	
17.257	0.5908538	-28.242634	0.55505048	30.24711	0.55505048	30.24711	0.5908538	-28.242634	
17.656	0.58789926	-28.800429	0.56148881	30.292894	0.56148881	30.292894	0.58789926	-28.800429	
18.055	0.58492148	-29.352877	0.56787131	30.325032	0.56787131	30.325032	0.58492148	-29.352877	
18.454	0.58192232	-29.899964	0.57419516	30.344332	0.57419516	30.344332	0.58192232	-29.899964	
18.853	0.57890361	-30.44168	0.58045784	30.351563	0.58045784	30.351563	0.57890361	-30.44168	
19.252	0.57586713	-30.978018	0.58665705	30.347454	0.58665705	30.347454	0.57586713	-30.978018	
19.651	0.57281461	-31.508975	0.59279075	30.332695	0.59279075	30.332695	0.57281461	-31.508975	
20.05	0.56974774	-32.034552	0.5988571	30.307942	0.5988571	30.307942	0.56974774	-32.034552	
20.449	0.56666817	-32.554752	0.60485451	30.273819	0.60485451	30.273819	0.56666817	-32.554752	
20.848	0.56357747	-33.069582	0.61078157	30.230913	0.61078157	30.230913	0.56357747	-33.069582	
21.247	0.56047721	-33.579053	0.61663703	30.179784	0.61663703	30.179784	0.56047721	-33.579053	
21.646	0.55736888	-34.083177	0.62241986	30.120959	0.62241986	30.120959	0.55736888	-34.083177	
22.045	0.55425393	-34.581969	0.62812916	30.054939	0.62812916	30.054939	0.55425393	-34.581969	
22.444	0.55113375	-35.075448	0.6337642	29.982198	0.6337642	29.982198	0.55113375	-35.075448	
22.843	0.5480097	-35.563635	0.63932438	29.903184	0.63932438	29.903184	0.5480097	-35.563635	
23.242	0.54488308	-36.046552	0.64480924	29.81832	0.64480924	29.81832	0.54488308	-36.046552	
23.641	0.54175516	-36.524224	0.65021844	29.728007	0.65021844	29.728007	0.54175516	-36.524224	
24.04	0.53862713	-36.99668	0.65555176	29.632625	0.65555176	29.632625	0.53862713	-36.99668	
24.439	0.53550017	-37.463947	0.66080909	29.532531	0.66080909	29.532531	0.53550017	-37.463947	
24.838	0.53237538	-37.926057	0.6659904	29.428063	0.6659904	29.428063	0.53237538	-37.926057	
25.237	0.52925385	-38.383044	0.67109577	29.319543	0.67109577	29.319543	0.52925385	-38.383044	
25.636	0.5261366	-38.834941	0.67612537	29.207271	0.67612537	29.207271	0.5261366	-38.834941	
26.035	0.52302461	-39.281784	0.68107943	29.091534	0.68107943	29.091534	0.52302461	-39.281784	
26.434	0.51991883	-39.72361	0.68595826	28.972601	0.68595826	28.972601	0.51991883	-39.72361	
26.833	0.51682014	-40.160459	0.69076224	28.850726	0.69076224	28.850726	0.51682014	-40.160459	
27.232	0.51372941	-40.59237	0.69549181	28.72615	0.69549181	28.72615	0.51372941	-40.59237	
27.631	0.51064746	-41.019383	0.70014747	28.5991	0.70014747	28.5991	0.51064746	-41.019383	
28.03	0.50757506	-41.441542	0.70472977	28.469789	0.70472977	28.469789	0.50757506	-41.441542	
28.429	0.50451295	-41.858888	0.70923928	28.338419	0.70923928	28.338419	0.50451295	-41.858888	
28.828	0.50146184	-42.271466	0.71367666	28.205182	0.71367666	28.205182	0.50146184	-42.271466	
29.227	0.49842238	-42.679319	0.71804258	28.070256	0.71804258	28.070256	0.49842238	-42.679319	
29.626	0.49539521	-43.082494	0.72233774	27.933811	0.72233774	27.933811	0.49539521	-43.082494	
30.025	0.49238093	-43.481035	0.72656289	27.796007	0.72656289	27.796007	0.49238093	-43.481035	
30.424	0.4893801	-43.874989	0.73071879	27.656993	0.73071879	27.656993	0.4893801	-43.874989	
30.823	0.48639324	-44.264403	0.73480623	27.516913	0.73480623	27.516913	0.48639324	-44.264403	
31.222	0.48342087	-44.649324	0.73882603	27.375899	0.73882603	27.375899	0.48342087	-44.649324	
31.621	0.48046344	-45.029799	0.74277903	27.234077	0.74277903	27.234077	0.48046344	-45.029799	
32.02	0.47752141	-45.405876	0.74666606	27.091565	0.74666606	27.091565	0.47752141	-45.405876	
32.419	0.47459517	-45.777603	0.750488	26.948475	0.750488	26.948475	0.47459517	-45.777603	
32.818	0.47168513	-46.145028	0.75424572	26.804913	0.75424572	26.804913	0.47168513	-46.145028	
33.217	0.46879163	-46.5082	0.75794011	26.660975	0.75794011	26.660975	0.46879163	-46.5082	
33.616	0.46591501	-46.867166	0.76157205	26.516755	0.76157205	26.516755	0.46591501	-46.867166	
34.015	0.46305558	-47.221976	0.76514245	26.37234	0.76514245	26.37234	0.46305558	-47.221976	
34.414	0.46021363	-47.572677	0.76865221	26.227812	0.76865221	26.227812	0.46021363	-47.572677	
34.813	0.45738942	-47.919318	0.77210224	26.083247	0.77210224	26.083247	0.45738942	-47.919318	
35.212	0.4545832	-48.261947	0.77549345	25.938718	0.77549345	25.938718	0.4545832	-48.261947	
35.611	0.45179518	-48.600612	0.77882674	25.794291	0.77882674	25.794291	0.45179518	-48.600612	
36.01	0.44902557	-48.935361	0.78210303	25.650031	0.78210303	25.650031	0.44902557	-48.935361	
36.409	0.44627456	-49.266242	0.78532321	25.505997	0.78532321	25.505997	0.44627456	-49.266242	
36.808	0.4435423	-49.593303	0.78848819	25.362243	0.78848819	25.362243	0.4435423	-49.593303	
37.207	0.44082894	-49.91659	0.79159887	25.218823	0.79159887	25.218823	0.44082894	-49.91659	
37.606	0.43813463	-50.236152	0.79465615	25.075784	0.79465615	25.075784	0.43813463	-50.236152	
38.005	0.43545946	-50.552034	0.7976609	24.933172	0.7976609	24.933172	0.43545946	-50.552034	
38.404	0.43280355	-50.864283	0.80061402	24.791029	0.80061402	24.791029	0.43280355	-50.864283	
38.803	0.43016698	-51.172945	0.80351637	24.649395	0.80351637	24.649395	0.43016698	-51.172945	
39.202	0.42754981	-51.478067	0.80636882	24.508305	0.80636882	24.508305	0.42754981	-51.478067	
39.601	0.42495212	-51.779693	0.80917223	24.367796	0.80917223	24.367796	0.42495212	-51.779693	
40	0.42237394	-52.077869	0.81192745	24.227897	0.81192745	24.227897	0.42237394	-52.077869	
! NOISE PARAMETERS
0.1	6.7502923e-015	1	6.9885916e-017	3.9996589
0.499	0	1	3.3553056e-016	3.9915246
0.898	0	1	2.2380857e-016	3.9726803
1.297	8.6789472e-015	1	1.1199977e-015	3.9434255
1.696	3.5731669e-007	0.99999998	4.4851999e-016	3.9042166
2.095	2.8929824e-015	1	-8.5377365e-007	3.8556495
2.494	1.9286549e-015	1	-4.4997887e-016	3.7984379
2.893	-1.9286549e-015	1	-8.5377365e-007	3.7333883
3.292	2.8929824e-015	1	4.519946e-016	3.6613734
3.691	7.7146197e-015	1	9.0642322e-016	3.5833055
4.09	3.8573099e-015	1	-9.0913652e-016	3.5001119
4.489	-4.8216373e-015	1	-3.6485179e-015	3.4127114
4.888	3.0403136e-007	0.99999998	-4.5770125e-015	3.3219951
5.287	9.6432747e-016	1	7.3516481e-015	3.2288103
5.686	-5.3038011e-015	1	-9.2279051e-016	3.1339475
6.085	2.7805204e-007	0.99999998	1.853813e-015	3.0381322
6.484	9.6432747e-016	1	-8.5377365e-007	2.9420191
6.883	3.8573099e-015	1	-5.6159117e-015	2.8461896
7.282	2.8929824e-015	1	-1.8818986e-015	2.7511515
7.681	-5.3038011e-015	1	-7.5695778e-015	2.6573415
8.08	2.3476234e-007	0.99999998	-1.1420758e-014	2.5651279
8.479	0	1	0	2.4748158
8.878	3.8573099e-015	1	5.7819121e-015	2.3866516
9.277	-2.8929824e-015	1	-3.8801728e-015	2.3008294
9.676	-3.8573099e-015	1	-5.8603335e-015	2.2174959
10.075	4.8216373e-015	1	1.1804281e-014	2.1367566
10.474	0	1	0	2.0586809
10.873	-1.9286549e-015	1	-3.9939829e-015	1.9833072
11.272	9.6432747e-016	1	-2.0126711e-015	1.9106479
11.671	3.8573099e-015	1	8.1157448e-015	1.840693
12.07	-9.6432747e-016	1	1.0228944e-014	1.7734145
12.469	-4.8216373e-016	1	-1.0316157e-014	1.7087694
12.868	0	1	8.3250643e-015	1.6467031
13.267	3.8573099e-015	1	2.0998953e-015	1.5871512
13.666	-2.8929824e-015	1	-6.3573646e-015	1.5300427
14.065	9.6432747e-016	1	-4.2778947e-015	1.475301
14.464	1.3021989e-007	0.99999998	8.6375013e-015	1.422846
14.863	-1.9286549e-015	1	2.1804082e-015	1.3725955
15.262	-1.4464912e-015	1	-8.5377365e-007	1.3244659
15.661	-4.8216373e-016	1	1.1121499e-014	1.2783734
16.06	9.6432747e-016	1	0	1.2342348
16.459	0	1	2.0435805e-014	1.191968
16.858	1.053854e-007	0.99999998	1.6063217e-014	1.1514923
17.257	-9.6432747e-016	1	-9.277873e-015	1.1127292
17.656	3.8573099e-015	1	-8.5377364e-007	1.0756022
18.055	1.9286549e-015	1	-2.370795e-015	1.0400375
18.454	-9.6432747e-016	1	-1.2074183e-006	1.0059637
18.853	9.6432747e-016	1	2.4246519e-015	0.97331206
19.252	9.6432747e-016	1	7.3576137e-015	0.94201661
19.651	-4.8216373e-016	1	9.9242677e-015	0.91201413
20.05	-1.4464912e-015	1	-1.2074183e-006	0.8832441
20.449	0	1	-1.2074183e-006	0.8556487
20.848	9.6432747e-016	1	1.0282199e-014	0.82917274
21.247	9.6432747e-016	1	-7.8050661e-015	0.8037636
21.646	-4.8216373e-016	1	1.0533959e-014	0.77937117
22.045	0	1	-1.2074183e-006	0.75594774
22.444	6.712568e-008	0.99999998	1.0796381e-014	0.73344791
22.843	6.514706e-008	0.99999998	2.7329076e-015	0.71182854
23.242	6.3245266e-008	0.99999998	2.7673989e-015	0.69104862
23.641	-9.6432747e-016	1	-5.605147e-015	0.67106919
24.04	-4.8216373e-016	1	-1.2074183e-006	0.65185325
24.439	9.6432747e-016	1	0	0.63336565
24.838	9.6432747e-016	1	0	0.61557303
25.237	5.4769999e-008	0.99999998	-2.9501938e-015	0.59844373
25.636	-4.8216373e-016	1	1.195541e-014	0.58194766
26.035	1.9286549e-015	1	-1.2074182e-006	0.56605629
26.434	9.6432747e-016	1	-1.2074182e-006	0.55074251
26.833	9.6432747e-016	1	3.1091139e-015	0.5359806
27.232	-4.8216373e-016	1	0	0.52174613
27.631	0	1	9.5787266e-015	0.50801589
28.03	9.6432747e-016	1	6.4718159e-015	0.49476787
28.429	4.4111259e-008	0.99999998	-1.3118593e-014	0.48198112
28.828	9.6432747e-016	1	-8.5377366e-007	0.46963577
29.227	4.1890214e-008	0.99999998	6.7387493e-015	0.45771292
29.626	0	1	-1.2074183e-006	0.4461946
30.025	3.9817347e-008	0.99999998	1.0386394e-014	0.43506376
30.424	3.883262e-008	0.99999998	1.052898e-014	0.42430414
30.823	0	1	-2.4905743e-014	0.4139003
31.222	9.6432747e-016	1	-8.5377365e-007	0.40383757
31.621	3.6068492e-008	0.99999998	7.3138328e-015	0.39410194
32.02	9.6432747e-016	1	-7.4151562e-015	0.38468012
32.419	3.4371469e-008	0.99999998	1.5036151e-014	0.37555943
32.818	0	1	1.5245207e-014	0.36672779
33.217	9.6432747e-016	1	1.1593128e-014	0.35817372
33.616	0	1	3.9182669e-015	0.34988624
34.015	9.6432747e-016	1	-1.2074183e-006	0.34185492
34.414	9.6432747e-016	1	-1.4787793e-006	0.33406979
34.813	0	1	-2.4509414e-014	0.32652134
35.212	-4.8216373e-016	1	-2.0710617e-014	0.31920051
35.611	0	1	-1.4787794e-006	0.31209865
36.01	9.6432747e-016	1	2.9813831e-014	0.3052075
36.409	9.6432747e-016	1	-8.5377367e-007	0.29851916
36.808	0	1	-1.4787793e-006	0.29202609
37.207	0	1	-8.8821933e-015	0.2857211
37.606	-4.8216373e-016	1	-1.4787793e-006	0.2795973
38.005	-4.8216373e-016	1	-8.5377363e-007	0.27364811
38.404	0	1	-3.0101649e-014	0.26786722
38.803	0	1	-8.5377361e-007	0.26224862
39.202	0	1	-1.4787793e-006	0.25678654
39.601	4.6030429e-008	0.99999996	4.3461812e-014	0.25147546
40	0	1	3.4278693e-014	0.2463101
