! Created Mon Jan 15 10:18:24 2018
# hz S ri R 50
! 1 Port Network Data from SP2.SP block
! freq  reS11  imS11  
!     
             1e+09       0.550726923       -0.831352956
          1.01e+09        0.54201068       -0.836914684
          1.02e+09       0.533228852       -0.842394347
          1.03e+09       0.524597793        -0.84804007
          1.04e+09       0.516005634       -0.853736139
          1.05e+09       0.507289649       -0.859291556
          1.06e+09       0.498247516       -0.864441627
          1.07e+09       0.489142845       -0.869505591
          1.08e+09       0.480053778        -0.87450362
          1.09e+09       0.470940786       -0.879427795
           1.1e+09       0.461747311       -0.884260881
          1.11e+09       0.452404157       -0.888974245
          1.12e+09       0.443001831       -0.893597599
          1.13e+09       0.433617736       -0.898158622
          1.14e+09       0.424211059       -0.902645066
          1.15e+09       0.414725487       -0.907034863
          1.16e+09        0.40509162        -0.91129533
          1.17e+09       0.395402116       -0.915461814
          1.18e+09       0.385737528       -0.919567961
          1.19e+09        0.37605375       -0.923597877
           1.2e+09       0.366294271       -0.927524811
          1.21e+09       0.356394403       -0.931310146
          1.22e+09       0.346442729       -0.934997735
          1.23e+09        0.33644007       -0.938586759
          1.24e+09       0.326387226        -0.94207648
          1.25e+09       0.316306917        -0.94547908
          1.26e+09       0.306264436       -0.948835097
          1.27e+09       0.296172031       -0.952093734
          1.28e+09       0.285889037       -0.954921193
          1.29e+09       0.275507496       -0.957504626
           1.3e+09       0.265128845       -0.960082082
          1.31e+09       0.254858024       -0.962935713
          1.32e+09       0.244541164       -0.965688155
          1.33e+09       0.234117918       -0.968278265
          1.34e+09       0.223627985       -0.970738093
          1.35e+09        0.21309735       -0.973090692
          1.36e+09       0.202526944       -0.975335253
          1.37e+09       0.191917708        -0.97747114
          1.38e+09       0.181332121       -0.979564032
          1.39e+09       0.170730709       -0.981575657
           1.4e+09        0.16007319       -0.983458165
          1.41e+09       0.149321266       -0.985155249
          1.42e+09       0.138535339       -0.986740148
          1.43e+09       0.127772676        -0.98828573
          1.44e+09       0.116995848       -0.989747993
          1.45e+09       0.106162537       -0.990978862
          1.46e+09        0.09523141       -0.991699971
          1.47e+09      0.0842802081       -0.992305147
          1.48e+09      0.0733206989       -0.993097222
          1.49e+09       0.062339447       -0.993880397
           1.5e+09      0.0513326082       -0.994546072
          1.51e+09       0.040301322       -0.995093633
          1.52e+09      0.0292466735       -0.995522334
          1.53e+09      0.0182180762       -0.995918231
          1.54e+09     0.00718110239       -0.996226138
          1.55e+09    -0.00388931352       -0.996283524
          1.56e+09     -0.0150020563       -0.995823056
          1.57e+09     -0.0261236065       -0.995241246
          1.58e+09     -0.0372698392       -0.994847197
          1.59e+09     -0.0484357627       -0.994431136
           1.6e+09     -0.0596048608       -0.993923858
          1.61e+09     -0.0707586852       -0.993386834
          1.62e+09     -0.0819288771       -0.992727294
          1.63e+09     -0.0931002416       -0.991535287
          1.64e+09      -0.104269126       -0.990091255
          1.65e+09      -0.115451469       -0.988630719
          1.66e+09      -0.126676834       -0.987342313
          1.67e+09      -0.137907337       -0.985926449
          1.68e+09      -0.149135427       -0.984383345
          1.69e+09      -0.160364139       -0.982712101
           1.7e+09      -0.171571617       -0.980801575
          1.71e+09      -0.182714459       -0.978471873
          1.72e+09      -0.193847165       -0.976014411
          1.73e+09      -0.205035204       -0.973845701
          1.74e+09      -0.216241858       -0.971665665
          1.75e+09      -0.227419899       -0.969204246
          1.76e+09      -0.238515283       -0.966230509
          1.77e+09      -0.249593728        -0.96312712
          1.78e+09      -0.260734197       -0.960205101
          1.79e+09      -0.271884115        -0.95723455
           1.8e+09      -0.282986629       -0.954016792
          1.81e+09      -0.293985489       -0.950390532
          1.82e+09      -0.304960353       -0.946633221
          1.83e+09      -0.316013277       -0.943052081
          1.84e+09      -0.327073214       -0.939415404
          1.85e+09      -0.338067728       -0.935530042
          1.86e+09      -0.348929861       -0.931246572
          1.87e+09      -0.359760846       -0.926830898
          1.88e+09      -0.370684267        -0.92258482
          1.89e+09      -0.381611125       -0.918276247
           1.9e+09      -0.392472997       -0.913759064
          1.91e+09      -0.403221173       -0.908945627
          1.92e+09      -0.413937163       -0.903997844
          1.93e+09      -0.424713388       -0.899103462
          1.94e+09      -0.435477246       -0.894114729
          1.95e+09      -0.446145377       -0.888874132
          1.96e+09      -0.456641596       -0.883252938
          1.97e+09      -0.467091786       -0.877497244
          1.98e+09      -0.477654782       -0.871897761
          1.99e+09       -0.48821033       -0.866222637
             2e+09      -0.498656399       -0.860294105
          2.01e+09      -0.508915502       -0.853992772
          2.02e+09      -0.519120852       -0.847555691
          2.03e+09        -0.5294426       -0.841269453
          2.04e+09      -0.539749281       -0.834901569
          2.05e+09      -0.549929192       -0.828281047
          2.06e+09      -0.559900907       -0.821299842
          2.07e+09      -0.569811194       -0.814181579
          2.08e+09      -0.579658276       -0.806925935
          2.09e+09      -0.589440747       -0.799532502
           2.1e+09      -0.599237555       -0.792111899
          2.11e+09      -0.609125995       -0.784762974
          2.12e+09       -0.61895142       -0.777269486
          2.13e+09      -0.628500048       -0.769366983
          2.14e+09      -0.637937947       -0.761275764
          2.15e+09      -0.647299826       -0.753045109
          2.16e+09      -0.656582517       -0.744675571
          2.17e+09       -0.66578783       -0.736163861
          2.18e+09      -0.675135799       -0.727768785
          2.19e+09      -0.684446293       -0.719268853
           2.2e+09       -0.69353436       -0.710479327
          2.21e+09      -0.702274861       -0.701297277
          2.22e+09      -0.710923232       -0.691974438
          2.23e+09      -0.719602326       -0.682584218
          2.24e+09      -0.728211397        -0.67305669
          2.25e+09      -0.736829908       -0.663483663
          2.26e+09      -0.745532919       -0.653936282
          2.27e+09       -0.75414607       -0.644228123
          2.28e+09      -0.762416678       -0.634118502
          2.29e+09      -0.770551137       -0.623813644
           2.3e+09      -0.778584084       -0.613346659
          2.31e+09      -0.786513216       -0.602714605
          2.32e+09       -0.79433612         -0.5919142
          2.33e+09      -0.802042697       -0.580951416
          2.34e+09       -0.80963699       -0.569814128
          2.35e+09      -0.817235553       -0.558592251
          2.36e+09      -0.824910606       -0.547335006
          2.37e+09      -0.832469676       -0.535881113
          2.38e+09      -0.839454772       -0.524003583
          2.39e+09      -0.846249998       -0.511905159
           2.4e+09      -0.852985054       -0.499608742
          2.41e+09      -0.859700676       -0.487098112
          2.42e+09      -0.866273278       -0.474358456
          2.43e+09      -0.872697058       -0.461381398
          2.44e+09      -0.878964561       -0.448152608
          2.45e+09      -0.885065831       -0.434659619
          2.46e+09      -0.890990426       -0.420887747
          2.47e+09      -0.896729535       -0.406817077
          2.48e+09      -0.902384161       -0.392678733
          2.49e+09      -0.907839976       -0.378238057
           2.5e+09      -0.913012649       -0.363328688
          2.51e+09      -0.917852523        -0.34786003
          2.52e+09      -0.922409599       -0.331962424
          2.53e+09      -0.926648355       -0.315604857
          2.54e+09      -0.930527577        -0.29873659
          2.55e+09      -0.933993562       -0.281306713
          2.56e+09      -0.936977686        -0.26325819
          2.57e+09      -0.939391413       -0.244526808
          2.58e+09      -0.940930455       -0.225210255
          2.59e+09      -0.941623735       -0.205111987
           2.6e+09      -0.941368417       -0.184059978
          2.61e+09      -0.939910203       -0.161941729
          2.62e+09      -0.936761739       -0.138855974
          2.63e+09      -0.931425037       -0.114905706
          2.64e+09      -0.923274322      -0.0904063607
          2.65e+09      -0.911789461      -0.0663147869
          2.66e+09      -0.896773537      -0.0441156121
          2.67e+09      -0.879054664      -0.0254021553
          2.68e+09      -0.861251938      -0.0103707331
          2.69e+09      -0.846613225      0.00381642809
           2.7e+09      -0.833183319       0.0224163705
          2.71e+09      -0.814400493         0.04684022
          2.72e+09      -0.784483516        0.073383599
          2.73e+09      -0.740623547       0.0959626881
          2.74e+09      -0.683244218        0.106310857
          2.75e+09      -0.617214971       0.0956822447
          2.76e+09      -0.553318665       0.0577206235
          2.77e+09      -0.506536046     -0.00628518915
          2.78e+09      -0.489151141      -0.0846337222
          2.79e+09      -0.503933701       -0.160287184
           2.8e+09      -0.542589867       -0.219676048
          2.81e+09      -0.592948994       -0.257929198
          2.82e+09      -0.645189109        -0.27693626
          2.83e+09      -0.693958323       -0.281060222
          2.84e+09      -0.736620692       -0.275240085
          2.85e+09      -0.772769734       -0.263266639
          2.86e+09      -0.803018857       -0.247674785
          2.87e+09      -0.828301675       -0.229929022
          2.88e+09      -0.849479322       -0.210780529
          2.89e+09      -0.867159985        -0.19114395
           2.9e+09      -0.881939303        -0.17141838
          2.91e+09      -0.894321093       -0.151836597
          2.92e+09       -0.90472931       -0.132522283
          2.93e+09      -0.913609368       -0.113773772
          2.94e+09      -0.921122832      -0.0953570668
          2.95e+09       -0.92739459      -0.0771823656
          2.96e+09      -0.932568273      -0.0592653325
          2.97e+09      -0.936852555      -0.0417041505
          2.98e+09      -0.940521547      -0.0246173812
          2.99e+09      -0.943514536     -0.00782732076
             3e+09      -0.945822355      0.00872317955
          3.01e+09      -0.947499213       0.0250366743
          3.02e+09      -0.948678643       0.0410852167
          3.03e+09      -0.949406368       0.0569114966
          3.04e+09      -0.949715363       0.0725024426
          3.05e+09      -0.949718595       0.0878285657
          3.06e+09      -0.949448023        0.102915363
          3.07e+09      -0.948846297        0.117820722
          3.08e+09      -0.947779792        0.132596008
          3.09e+09       -0.94641595        0.147192765
           3.1e+09      -0.944760053        0.161611974
          3.11e+09       -0.94282739        0.175859811
          3.12e+09      -0.940643028        0.189949068
          3.13e+09      -0.938414259        0.203887332
          3.14e+09       -0.93595012        0.217693669
          3.15e+09      -0.932973642        0.231306915
          3.16e+09      -0.929515882        0.244719575
          3.17e+09      -0.925859705        0.257993604
          3.18e+09      -0.922362128        0.271242507
          3.19e+09      -0.918664936        0.284363086
           3.2e+09      -0.914857466        0.297373829
          3.21e+09      -0.910935802        0.310283537
          3.22e+09      -0.906823365        0.323079942
          3.23e+09      -0.902378557         0.33570054
          3.24e+09      -0.897757978        0.348202215
          3.25e+09      -0.892965591        0.360590853
          3.26e+09      -0.888004031        0.372866649
          3.27e+09      -0.882875627        0.385025576
          3.28e+09      -0.877575427        0.397052216
          3.29e+09      -0.872116079        0.408963408
           3.3e+09      -0.866506234         0.42076596
          3.31e+09       -0.86074652        0.432459508
          3.32e+09      -0.854841486        0.444042987
          3.33e+09      -0.848938307        0.455599858
          3.34e+09      -0.842882961        0.467052217
          3.35e+09      -0.836590996        0.478332139
          3.36e+09      -0.830084437        0.489444493
          3.37e+09      -0.823421072         0.50043435
          3.38e+09      -0.816339069        0.511167922
          3.39e+09      -0.809123391        0.521782092
           3.4e+09       -0.80194773        0.532362375
          3.41e+09      -0.794775203        0.542894371
          3.42e+09      -0.787470982        0.553310525
          3.43e+09      -0.780039076         0.56360671
          3.44e+09      -0.772478753        0.573786276
          3.45e+09      -0.764783667        0.583848382
          3.46e+09      -0.756957557        0.593791741
          3.47e+09      -0.749009659        0.603615355
          3.48e+09      -0.740958743        0.613315163
          3.49e+09      -0.732787652        0.622895169
           3.5e+09      -0.724499614        0.632352474
          3.51e+09      -0.716095768        0.641686893
          3.52e+09      -0.707554977         0.65088382
          3.53e+09      -0.698653108        0.659777065
          3.54e+09       -0.68964309        0.668542681
          3.55e+09      -0.680677462        0.677298712
          3.56e+09      -0.671711176        0.686012996
          3.57e+09      -0.662638348        0.694599341
          3.58e+09      -0.653473468        0.703047097
          3.59e+09      -0.644203993        0.711366825
           3.6e+09      -0.634832715        0.719557295
          3.61e+09       -0.62536081        0.727617712
          3.62e+09      -0.615788278        0.735547353
          3.63e+09      -0.606110943        0.743345174
          3.64e+09      -0.596336719         0.75100985
          3.65e+09      -0.586327419        0.758408266
          3.66e+09       -0.57613464        0.765581183
          3.67e+09      -0.565879474        0.772636822
          3.68e+09      -0.555755132        0.779740576
          3.69e+09      -0.545542412        0.786707131
           3.7e+09      -0.535243389        0.793541494
          3.71e+09      -0.524859241        0.800240517
          3.72e+09      -0.514390605        0.806800215
          3.73e+09      -0.503835741        0.813225028
          3.74e+09      -0.493199795        0.819507499
          3.75e+09       -0.48249273        0.825638718
          3.76e+09      -0.471713426        0.831621171
          3.77e+09      -0.460832192         0.83743036
          3.78e+09      -0.449687957        0.842884008
          3.79e+09      -0.438475645        0.848188048
           3.8e+09      -0.427334148        0.853491184
          3.81e+09      -0.416206976        0.858735391
          3.82e+09      -0.405016232        0.863801321
          3.83e+09      -0.393788586        0.868519379
          3.84e+09        -0.3825065        0.873086143
          3.85e+09      -0.371149876         0.87764401
          3.86e+09      -0.359722309        0.882132493
          3.87e+09      -0.348209232        0.886433215
          3.88e+09      -0.336470526        0.890360013
          3.89e+09      -0.324681457        0.894129109
           3.9e+09      -0.312971405        0.897904001
          3.91e+09      -0.301282474        0.901613986
          3.92e+09       -0.28954591        0.905166494
          3.93e+09      -0.277770232        0.908557917
          3.94e+09      -0.265949344        0.911791137
          3.95e+09      -0.254136481        0.914721693
          3.96e+09      -0.242317324        0.917416176
          3.97e+09      -0.230426492        0.919945618
          3.98e+09      -0.218278059        0.922279822
          3.99e+09      -0.206097822        0.924449274
             4e+09      -0.194005787        0.926626222
          4.01e+09      -0.181943912         0.92872946
          4.02e+09      -0.169852614        0.930669303
          4.03e+09      -0.157735469        0.932446083
          4.04e+09      -0.145592472        0.934058026
          4.05e+09      -0.133521554        0.935364978
          4.06e+09       -0.12148417        0.936438942
          4.07e+09      -0.109384124        0.937336372
          4.08e+09     -0.0970214923        0.938001087
          4.09e+09     -0.0846476205        0.938495093
           4.1e+09     -0.0723613667        0.939012159
          4.11e+09     -0.0601107592        0.939453466
          4.12e+09     -0.0478840363        0.939690221
          4.13e+09     -0.0358086621        0.939599789
          4.14e+09     -0.0237367878        0.939343907
          4.15e+09      -0.011546323        0.939051508
          4.16e+09    0.000701129514        0.938648942
          4.17e+09      0.0129364457         0.93798433
          4.18e+09      0.0251138269        0.936755721
          4.19e+09      0.0372720429        0.935356974
           4.2e+09       0.049460852        0.934125119
          4.21e+09      0.0616607264        0.932871168
          4.22e+09      0.0738455082        0.931442911
          4.23e+09       0.086003971        0.929836503
          4.24e+09      0.0981450294        0.928056628
          4.25e+09       0.110190652        0.925773416
          4.26e+09       0.122170511        0.923177492
          4.27e+09       0.134140764        0.920505655
          4.28e+09       0.146188564        0.918031099
          4.29e+09       0.158207187        0.915381108
           4.3e+09       0.170006166         0.91245613
          4.31e+09       0.181686857        0.909321426
          4.32e+09       0.193375051        0.906048808
          4.33e+09       0.205213385        0.902714161
          4.34e+09       0.217009641        0.899204889
          4.35e+09        0.22864194        0.895199703
          4.36e+09       0.240168957        0.890896542
          4.37e+09         0.2516714        0.886522503
          4.38e+09       0.263250483        0.882326305
          4.39e+09       0.274774321        0.877956416
           4.4e+09       0.286038473         0.87333642
          4.41e+09       0.297159736         0.86852163
          4.42e+09        0.30829277        0.863487389
          4.43e+09       0.319628072        0.858095424
          4.44e+09       0.330888239        0.852527988
          4.45e+09       0.341805039        0.846979473
          4.46e+09       0.352544799        0.841338744
          4.47e+09       0.363274865        0.835552174
          4.48e+09       0.374158306         0.82964533
          4.49e+09        0.38495867        0.823569441
           4.5e+09        0.39543066        0.817295482
          4.51e+09        0.40572556        0.810854342
          4.52e+09       0.415935896        0.804172272
          4.53e+09       0.426078084        0.797068396
          4.54e+09       0.436112108        0.789809665
