# GHz S MA R 50

1.000000000000000e+00  1.0167995886632735e+00 -1.0495467923542726e+02
1.004375000000000e+00  1.0152742646810486e+00 -1.0552927355106830e+02
1.008750000000000e+00  1.0118695228676122e+00 -1.0587727313915678e+02
1.013125000000000e+00  1.0065156638151376e+00 -1.0672070912220316e+02
1.017500000000000e+00  1.0023007287205548e+00 -1.0717981281772555e+02
1.021875000000000e+00  9.9602047379561420e-01 -1.0771491012264862e+02
1.026250000000000e+00  1.0005997041398949e+00 -1.0863885933264166e+02
1.030625000000000e+00  1.0054846028394981e+00 -1.0936874950171740e+02
1.035000000000000e+00  1.0026869809846581e+00 -1.1017559749520410e+02
1.039375000000000e+00  1.0029991505645475e+00 -1.1067316301721601e+02
1.043750000000000e+00  1.0101753824764665e+00 -1.1095089305662151e+02
1.048125000000000e+00  1.0038508078001316e+00 -1.1120496052536149e+02
1.052500000000000e+00  1.0061782817464811e+00 -1.1169491847550179e+02
1.056875000000000e+00  1.0070839940775251e+00 -1.1227729157128786e+02
1.061250000000000e+00  1.0014486162757830e+00 -1.1240188314434795e+02
1.065625000000000e+00  1.0029362192656257e+00 -1.1309649175217120e+02
1.070000000000000e+00  1.0010961996085435e+00 -1.1353136708445713e+02
1.074375000000000e+00  9.9611322066032992e-01 -1.1395553804747064e+02
1.078750000000000e+00  9.9552035049721677e-01 -1.1423623430525282e+02
1.083125000000000e+00  9.9625230910968132e-01 -1.1474375959527416e+02
1.087500000000000e+00  9.9780686594399615e-01 -1.1469876859814413e+02
1.091875000000000e+00  1.0010829217741037e+00 -1.1558079182859585e+02
1.096250000000000e+00  1.0052654072781919e+00 -1.1594741052771560e+02
1.100625000000000e+00  9.9681269655034976e-01 -1.1605121904894067e+02
1.105000000000000e+00  9.9213318131660100e-01 -1.1663992697259575e+02
1.109375000000000e+00  9.9469734044485147e-01 -1.1716095170984799e+02
1.113750000000000e+00  9.9183084899990048e-01 -1.1790625276726031e+02
1.118125000000000e+00  9.8730136708532279e-01 -1.1858671410537065e+02
1.122500000000000e+00  9.8854315721294284e-01 -1.1908449736727550e+02
1.126875000000000e+00  9.8524728039840703e-01 -1.1961896928813771e+02
1.131250000000000e+00  9.8313353843173201e-01 -1.2034425966780103e+02
1.135625000000000e+00  9.8888291686053642e-01 -1.2061472362521798e+02
1.140000000000000e+00  9.9127977442250503e-01 -1.2109141505175410e+02
1.144375000000000e+00  9.8584576227566367e-01 -1.2134641218600291e+02
1.148750000000000e+00  9.9200323038250582e-01 -1.2212159636266991e+02
1.153125000000000e+00  9.9818620437082739e-01 -1.2262408242119027e+02
1.157500000000000e+00  9.9975941602658813e-01 -1.2309924029539997e+02
1.161875000000000e+00  9.9956776779076295e-01 -1.2387831158764195e+02
1.166250000000000e+00  1.0024822025201212e+00 -1.2426526040346127e+02
1.170625000000000e+00  1.0021326697065744e+00 -1.2490625605494830e+02
1.175000000000000e+00  9.9908119418785346e-01 -1.2553442260427164e+02
1.179375000000000e+00  9.9215664261795711e-01 -1.2580749147692487e+02
1.183750000000000e+00  9.8718622149671176e-01 -1.2550946939952290e+02
1.188125000000000e+00  9.8481470554675210e-01 -1.2603716363041126e+02
1.192500000000000e+00  9.8606009901849989e-01 -1.2641523226135412e+02
1.196875000000000e+00  9.8216758502795909e-01 -1.2710347037681143e+02
1.201250000000000e+00  9.9085262239512262e-01 -1.2768167325064589e+02
1.205625000000000e+00  9.8795396960718196e-01 -1.2792372460351174e+02
1.210000000000000e+00  9.8450385870015078e-01 -1.2839463923073959e+02
1.214375000000000e+00  9.8183723519434707e-01 -1.2880999635576580e+02
1.218750000000000e+00  9.8337123515019498e-01 -1.2921159066046161e+02
1.223125000000000e+00  9.7643370971198584e-01 -1.2983308461999920e+02
1.227500000000000e+00  9.7459240556518323e-01 -1.3052734707129918e+02
1.231875000000000e+00  9.7079784499160748e-01 -1.3107172549380209e+02
1.236250000000000e+00  9.7660281670317683e-01 -1.3088443681338950e+02
1.240625000000000e+00  9.7210289494498314e-01 -1.3086662776191204e+02
1.245000000000000e+00  9.7323052609657423e-01 -1.3115668607414938e+02
1.249375000000000e+00  9.7555682899725849e-01 -1.3139955333730919e+02
1.253750000000000e+00  9.7745507314874380e-01 -1.3227561431197881e+02
1.258125000000000e+00  9.8465508684582792e-01 -1.3322671882701530e+02
1.262500000000000e+00  9.8692009790184232e-01 -1.3354160359822961e+02
1.266875000000000e+00  9.8391260250301060e-01 -1.3383378360957374e+02
1.271250000000000e+00  9.8592394866335953e-01 -1.3418233271685656e+02
1.275625000000000e+00  9.7755146399833415e-01 -1.3417785895794566e+02
1.280000000000000e+00  9.7777119270787261e-01 -1.3448281053772550e+02
1.284375000000000e+00  9.8823692058385737e-01 -1.3534656048420788e+02
1.288750000000000e+00  9.8485043611409950e-01 -1.3574950431139936e+02
1.293125000000000e+00  9.8985578421282705e-01 -1.3635661363985986e+02
1.297500000000000e+00  9.9270016649188519e-01 -1.3679878038156596e+02
1.301875000000000e+00  9.8997639882759714e-01 -1.3740611731828838e+02
1.306250000000000e+00  9.9619179224448628e-01 -1.3778369223578457e+02
1.310625000000000e+00  9.9325508827694553e-01 -1.3861104303834941e+02
1.315000000000000e+00  9.9300567054089850e-01 -1.3954691405967947e+02
1.319375000000000e+00  9.9646319569085218e-01 -1.3996189405266699e+02
1.323750000000000e+00  1.0005354141780229e+00 -1.4028035136759812e+02
1.328125000000000e+00  9.9686176480353450e-01 -1.4024630710550846e+02
1.332500000000000e+00  9.8877146449900821e-01 -1.4078810876507632e+02
1.336875000000000e+00  9.8363077180754588e-01 -1.4077550623853355e+02
1.341250000000000e+00  9.8293623389847584e-01 -1.4143742698293221e+02
1.345625000000000e+00  9.8327993987823747e-01 -1.4194285030928512e+02
1.350000000000000e+00  9.8332446529451212e-01 -1.4268413017177821e+02
1.354375000000000e+00  9.8878856546424676e-01 -1.4319942185629662e+02
1.358750000000000e+00  9.8114119795153043e-01 -1.4342807707131450e+02
1.363125000000000e+00  9.8826506614627041e-01 -1.4380846434880812e+02
1.367500000000000e+00  9.8963329969128544e-01 -1.4420476035762388e+02
1.371875000000000e+00  9.9395492267591501e-01 -1.4445557375717070e+02
1.376250000000000e+00  9.9654139202715331e-01 -1.4441948897749208e+02
1.380625000000000e+00  9.9089338778331948e-01 -1.4513085716694428e+02
1.385000000000000e+00  9.9040919844825503e-01 -1.4575025285375250e+02
1.389375000000000e+00  9.9102287199613204e-01 -1.4624044511684744e+02
1.393750000000000e+00  9.9203104236740003e-01 -1.4679487761989654e+02
1.398125000000000e+00  9.9303012317957040e-01 -1.4729206916870783e+02
1.402500000000000e+00  1.0011314239731961e+00 -1.4731997226026965e+02
1.406875000000000e+00  1.0022010756686199e+00 -1.4773755407882194e+02
1.411250000000000e+00  1.0077449217768688e+00 -1.4874760368328910e+02
1.415625000000000e+00  1.0125074525031983e+00 -1.4915470990067124e+02
1.420000000000000e+00  1.0127282151088819e+00 -1.4933293830674549e+02
1.424375000000000e+00  1.0197049400391296e+00 -1.4954323609614585e+02
1.428750000000000e+00  1.0114513475568567e+00 -1.4989338498729626e+02
1.433125000000000e+00  1.0099435908617376e+00 -1.5025340075950984e+02
1.437500000000000e+00  1.0078090868197167e+00 -1.5064290802981978e+02
1.441875000000000e+00  1.0041701776070011e+00 -1.5125946595127508e+02
1.446250000000000e+00  1.0016646467191701e+00 -1.5186795651825048e+02
1.450625000000000e+00  9.9691635740374818e-01 -1.5229202488871928e+02
1.455000000000000e+00  9.9713090540625160e-01 -1.5238560959104862e+02
1.459375000000000e+00  9.9781484668866716e-01 -1.5280877752297133e+02
1.463750000000000e+00  1.0013583139183011e+00 -1.5344510058759573e+02
1.468125000000000e+00  9.9555368602167760e-01 -1.5426677814910940e+02
1.472500000000000e+00  9.9150938323540960e-01 -1.5472294219943674e+02
1.476875000000000e+00  9.8552498364109720e-01 -1.5558570582559099e+02
1.481250000000000e+00  9.8673486349097939e-01 -1.5612243464866114e+02
1.485625000000000e+00  9.8544157333515658e-01 -1.5632378485936312e+02
1.490000000000000e+00  9.8240270368401506e-01 -1.5673129778358185e+02
1.494375000000000e+00  9.8278586563050974e-01 -1.5740928582428134e+02
1.498750000000000e+00  9.7945128276527249e-01 -1.5792078773880681e+02
1.503125000000000e+00  9.8455163765442311e-01 -1.5824014383884418e+02
1.507500000000000e+00  9.8928359102589181e-01 -1.5863445868536508e+02
1.511875000000000e+00  9.8763436511662639e-01 -1.5929704125328385e+02
1.516250000000000e+00  9.8967235273544418e-01 -1.5955106966940414e+02
1.520625000000000e+00  9.8265530266460599e-01 -1.5981987041385699e+02
1.525000000000000e+00  9.8699277069090263e-01 -1.6069891783678275e+02
1.529375000000000e+00  9.9069160095017872e-01 -1.6121063730581926e+02
1.533750000000000e+00  9.8527808336019296e-01 -1.6154372576255679e+02
1.538125000000000e+00  9.7910374919495746e-01 -1.6144758640967279e+02
1.542500000000000e+00  9.7837015696323948e-01 -1.6145201960243898e+02
1.546875000000000e+00  9.8372994633999544e-01 -1.6210858902853136e+02
1.551250000000000e+00  9.8893606078672935e-01 -1.6251392000252636e+02
1.555625000000000e+00  9.8888700752806347e-01 -1.6290377098321738e+02
1.560000000000000e+00  9.9156854173305586e-01 -1.6347084108031171e+02
1.564375000000000e+00  9.9094281305018395e-01 -1.6406841942166974e+02
1.568750000000000e+00  9.8581624203563478e-01 -1.6458402940948358e+02
1.573125000000000e+00  9.8661872104924708e-01 -1.6494586048384082e+02
1.577500000000000e+00  9.8648653221921667e-01 -1.6551021812406654e+02
1.581875000000000e+00  9.8549714161401725e-01 -1.6612125433511110e+02
1.586250000000000e+00  9.8088890786642524e-01 -1.6645663360991662e+02
1.590625000000000e+00  9.7303274156649866e-01 -1.6704686772113337e+02
1.595000000000000e+00  9.7672781880107273e-01 -1.6729682433175867e+02
1.599375000000000e+00  9.7655175966078689e-01 -1.6740826876277600e+02
1.603750000000000e+00  9.8141758248549416e-01 -1.6794580867851354e+02
1.608125000000000e+00  9.8612447656926328e-01 -1.6858365911420896e+02
1.612500000000000e+00  9.8205322872260581e-01 -1.6918172085052939e+02
1.616875000000000e+00  9.8272804206659314e-01 -1.6986957324405031e+02
1.621250000000000e+00  9.7928754212824642e-01 -1.7040088981237375e+02
1.625625000000000e+00  9.8075524785422485e-01 -1.7102598310453172e+02
1.630000000000000e+00  9.7980134074796854e-01 -1.7111653077972738e+02
1.634375000000000e+00  9.7991710509311969e-01 -1.7129453653690254e+02
1.638750000000000e+00  9.7815677683372981e-01 -1.7165653289273263e+02
1.643125000000000e+00  9.7624902891621790e-01 -1.7199477231295336e+02
1.647500000000000e+00  9.7413068972189720e-01 -1.7260759474958959e+02
1.651875000000000e+00  9.7226070687876620e-01 -1.7318593911362368e+02
1.656250000000000e+00  9.6927561075501212e-01 -1.7370961160331547e+02
1.660625000000000e+00  9.7124029317476601e-01 -1.7420574984947075e+02
1.665000000000000e+00  9.7457225648607448e-01 -1.7456094373171416e+02
1.669375000000000e+00  9.7718899896398159e-01 -1.7517379894751221e+02
1.673750000000000e+00  9.6840522047068323e-01 -1.7581275606186199e+02
1.678125000000000e+00  9.6388680622653644e-01 -1.7600769810784095e+02
1.682500000000000e+00  9.5957869557702602e-01 -1.7621804577518913e+02
1.686875000000000e+00  9.6628606431709274e-01 -1.7673926765123147e+02
1.691250000000000e+00  9.6470622045831866e-01 -1.7676115328960196e+02
1.695625000000000e+00  9.6249662563580873e-01 -1.7683558770959118e+02
1.700000000000000e+00  9.5982393235928765e-01 -1.7712776977082902e+02
1.704375000000000e+00  9.6511362911443344e-01 -1.7791967320184867e+02
1.708750000000000e+00  9.6658591463777710e-01 -1.7878789726102536e+02
1.713125000000000e+00  9.6634987650889015e-01 -1.7930154832543636e+02
1.717500000000000e+00  9.6992831373977384e-01 -1.7942311349941650e+02
1.721875000000000e+00  9.7366850289191897e-01 -1.7981323491726795e+02
1.726250000000000e+00  9.7482449607541755e-01 -1.7989955356836771e+02
1.730625000000000e+00  9.7405395897913694e-01  1.7959430304339838e+02
1.735000000000000e+00  9.7303086175380049e-01  1.7917874665093225e+02
1.739375000000000e+00  9.7671826312480625e-01  1.7849068046436898e+02
1.743750000000000e+00  9.7489075430754757e-01  1.7823126552313923e+02
1.748125000000000e+00  9.7738547028352896e-01  1.7787777797683509e+02
1.752500000000000e+00  9.7401610552022944e-01  1.7745180807995465e+02
1.756875000000000e+00  9.7792856276553941e-01  1.7677454709820807e+02
1.761250000000000e+00  9.7239433538583386e-01  1.7655983605570910e+02
1.765625000000000e+00  9.7138650822639583e-01  1.7580216694513192e+02
1.770000000000000e+00  9.7198530020471929e-01  1.7510817937702885e+02
1.774375000000000e+00  9.6946786856601241e-01  1.7468620607819975e+02
1.778750000000000e+00  9.6462416563298270e-01  1.7418226959367456e+02
1.783125000000000e+00  9.5800496654107214e-01  1.7391437565593662e+02
1.787500000000000e+00  9.5832313273234171e-01  1.7349236970902865e+02
1.791875000000000e+00  9.6020581574924513e-01  1.7291835000975101e+02
1.796250000000000e+00  9.5925201130920346e-01  1.7244631109026344e+02
1.800625000000000e+00  9.6036445047723562e-01  1.7185779585950891e+02
1.805000000000000e+00  9.6392716807653922e-01  1.7154897301159698e+02
1.809375000000000e+00  9.6202522690826642e-01  1.7142187182142598e+02
1.813750000000000e+00  9.5783607399837312e-01  1.7161663745634445e+02
1.818125000000000e+00  9.5940497016457937e-01  1.7093347811398044e+02
1.822500000000000e+00  9.5837611712143356e-01  1.7019124381185375e+02
1.826875000000000e+00  9.5954732143315125e-01  1.6949060519948219e+02
1.831250000000000e+00  9.5734490879375345e-01  1.6907763575116152e+02
1.835625000000000e+00  9.5701182014827435e-01  1.6870511688548882e+02
1.840000000000000e+00  9.6220748608662732e-01  1.6804713863872095e+02
1.844375000000000e+00  9.5839104535859387e-01  1.6766848748379641e+02
1.848750000000000e+00  9.5731835291994638e-01  1.6722593110675385e+02
1.853125000000000e+00  9.5968435829943932e-01  1.6691962136893531e+02
1.857500000000000e+00  9.6475471247918132e-01  1.6628728421721095e+02
1.861875000000000e+00  9.6154187597587837e-01  1.6594832005886565e+02
1.866250000000000e+00  9.5794586784365798e-01  1.6540462045878164e+02
1.870625000000000e+00  9.5609638816748810e-01  1.6492356512108111e+02
1.875000000000000e+00  9.5433405890769196e-01  1.6449805401727170e+02
1.879375000000000e+00  9.5408855359082767e-01  1.6424466545585398e+02
1.883750000000000e+00  9.5786718819923822e-01  1.6361705265800862e+02
1.888125000000000e+00  9.5776326395610023e-01  1.6282197160864081e+02
1.892500000000000e+00  9.5701093700805739e-01  1.6259180533202075e+02
1.896875000000000e+00  9.5785439669562078e-01  1.6246792679109993e+02
1.901250000000000e+00  9.6210749322410616e-01  1.6208057341400465e+02
1.905625000000000e+00  9.6080950382708818e-01  1.6188329704363221e+02
1.910000000000000e+00  9.6317291425957041e-01  1.6139569888276196e+02
1.914375000000000e+00  9.6015171404186928e-01  1.6126386396747111e+02
1.918750000000000e+00  9.6276518495980123e-01  1.6092697084776603e+02
1.923125000000000e+00  9.6483445887011032e-01  1.6058559929141290e+02
1.927500000000000e+00  9.6577410013631604e-01  1.6018626937625089e+02
1.931875000000000e+00  9.6130396137537044e-01  1.5996638839394217e+02
1.936250000000000e+00  9.6370758408751622e-01  1.5950022931791770e+02
1.940625000000000e+00  9.6221846203299344e-01  1.5912322359335860e+02
1.945000000000000e+00  9.6016618789064656e-01  1.5853743275301383e+02
1.949375000000000e+00  9.5952961779301704e-01  1.5804191654442542e+02
1.953750000000000e+00  9.6034971826239335e-01  1.5747943439710312e+02
1.958125000000000e+00  9.5957187061971405e-01  1.5711843870232951e+02
1.962500000000000e+00  9.6035165102083342e-01  1.5661541127275180e+02
1.966875000000000e+00  9.6051042310358470e-01  1.5602716025257999e+02
1.971250000000000e+00  9.5943515403391910e-01  1.5560099183056309e+02
1.975625000000000e+00  9.5280558479141775e-01  1.5515539046019828e+02
1.980000000000000e+00  9.5276441798480971e-01  1.5478764330539627e+02
1.984375000000000e+00  9.4902804552770303e-01  1.5434052381892914e+02
1.988750000000000e+00  9.4830117204248865e-01  1.5400392965601196e+02
1.993125000000000e+00  9.5135273574913759e-01  1.5347686834655352e+02
1.997500000000000e+00  9.5000981748129076e-01  1.5285052826916024e+02
2.001875000000000e+00  9.4640059399453769e-01  1.5236158427898852e+02
2.006250000000000e+00  9.4396079234432828e-01  1.5194451093106414e+02
2.010625000000000e+00  9.4274140487886127e-01  1.5148368324020407e+02
2.015000000000000e+00  9.4394179790859944e-01  1.5093154221692816e+02
2.019375000000000e+00  9.5029398963472744e-01  1.5037242503609014e+02
2.023750000000000e+00  9.4885950492050042e-01  1.5013420650920889e+02
2.028125000000000e+00  9.4650643295832770e-01  1.4962933711115068e+02
2.032500000000000e+00  9.4120168441907170e-01  1.4897061113245485e+02
2.036875000000000e+00  9.3932898498267481e-01  1.4868859040503082e+02
2.041250000000000e+00  9.3781140738445523e-01  1.4826241215905424e+02
2.045625000000000e+00  9.4693135577352960e-01  1.4789518548980365e+02
2.050000000000000e+00  9.5037454961139267e-01  1.4738106685619073e+02
2.054375000000000e+00  9.5023786179014869e-01  1.4682131063629578e+02
2.058750000000000e+00  9.5100413543174189e-01  1.4629412435070157e+02
2.063125000000000e+00  9.5195583645227455e-01  1.4569656745702810e+02
2.067500000000000e+00  9.4663713439051655e-01  1.4504959277575909e+02
2.071875000000000e+00  9.4700752015917589e-01  1.4470636455202896e+02
2.076250000000000e+00  9.4712437726928334e-01  1.4413482566402902e+02
2.080625000000000e+00  9.5003967196439221e-01  1.4398927032756848e+02
2.085000000000000e+00  9.5092725104930576e-01  1.4348094024257222e+02
2.089375000000000e+00  9.4829712039771297e-01  1.4313305253234918e+02
2.093750000000000e+00  9.4455184016806604e-01  1.4300422252028343e+02
2.098125000000000e+00  9.4691533612192813e-01  1.4234381582384785e+02
2.102500000000000e+00  9.4336406734239397e-01  1.4189742755775174e+02
2.106875000000000e+00  9.4509568811753408e-01  1.4163837733111885e+02
2.111250000000000e+00  9.4565157927107224e-01  1.4123710138326811e+02
2.115625000000000e+00  9.4313529465029311e-01  1.4081351324990757e+02
2.120000000000000e+00  9.3353073204705384e-01  1.4016565091990066e+02
2.124375000000000e+00  9.2894008188261668e-01  1.3971965015624056e+02
2.128750000000000e+00  9.2954231629218276e-01  1.3922160701679326e+02
2.133125000000000e+00  9.2854887393676744e-01  1.3866155287610226e+02
2.137500000000000e+00  9.2623949781440829e-01  1.3814917570122080e+02
2.141875000000000e+00  9.2764072598062575e-01  1.3783877683931939e+02
2.146250000000000e+00  9.2630595063726795e-01  1.3743934372699837e+02
2.150625000000000e+00  9.2306208202493500e-01  1.3716640822635676e+02
2.155000000000000e+00  9.1961899659180046e-01  1.3630289966531811e+02
2.159375000000000e+00  9.1843971183383322e-01  1.3591006414320279e+02
2.163750000000000e+00  9.1859389638550826e-01  1.3548320758291314e+02
2.168125000000000e+00  9.1397484945988683e-01  1.3473215087828089e+02
2.172500000000000e+00  9.1263899089587452e-01  1.3450822025452530e+02
2.176875000000000e+00  9.1177224549413649e-01  1.3408463652501098e+02
2.181250000000000e+00  9.0900551616048864e-01  1.3374038694950477e+02
2.185625000000000e+00  9.0412827365978887e-01  1.3309472000238566e+02
2.190000000000000e+00  9.0237881078353366e-01  1.3261936070656441e+02
2.194375000000000e+00  9.0026241028838716e-01  1.3225082535921842e+02
2.198750000000000e+00  8.9798958486959413e-01  1.3175578670575993e+02
2.203125000000000e+00  8.9438215724878978e-01  1.3147264535649893e+02
2.207500000000000e+00  8.9227598291428434e-01  1.3134907180419046e+02
2.211875000000000e+00  8.9013376094224161e-01  1.3097692733879785e+02
2.216250000000000e+00  8.8787545578464377e-01  1.3071535972985404e+02
2.220625000000000e+00  8.8494003599981397e-01  1.3029889698867930e+02
2.225000000000000e+00  8.8521663168585263e-01  1.2987840788595673e+02
2.229375000000000e+00  8.8358464063473463e-01  1.2968344541389104e+02
2.233750000000000e+00  8.8250890138452054e-01  1.2945599590627498e+02
2.238125000000000e+00  8.8172458872956672e-01  1.2920303846253768e+02
2.242500000000000e+00  8.7920997563897618e-01  1.2897008967604739e+02
