! Created Wed Feb 21 09:13:17 2018
# hz S ri R 50
! 1 Port Network Data from SP2.SP block
! freq  reS11  imS11  
!     
             1e+09       -0.16550984       -0.956218256
         1.005e+09      -0.173990402        -0.95466679
          1.01e+09      -0.182460534       -0.953041751
         1.015e+09       -0.19091963       -0.951343156
          1.02e+09      -0.199367085        -0.94957103
         1.025e+09      -0.207804877       -0.947804011
          1.03e+09      -0.216238219       -0.946126933
         1.035e+09      -0.224662695       -0.944376588
          1.04e+09      -0.233077704       -0.942552951
         1.045e+09      -0.241482647       -0.940656004
          1.05e+09      -0.249869275       -0.938605219
         1.055e+09      -0.258226265       -0.936320163
          1.06e+09      -0.266566754       -0.933961875
         1.065e+09      -0.274890128        -0.93153042
          1.07e+09       -0.28319577       -0.929025864
         1.075e+09      -0.291473063       -0.926465493
          1.08e+09      -0.299712947        -0.92386589
         1.085e+09      -0.307934499       -0.921194214
          1.09e+09      -0.316137115       -0.918450533
         1.095e+09      -0.324320194       -0.915634917
           1.1e+09      -0.332491102       -0.912729479
         1.105e+09        -0.3406552       -0.909718443
          1.11e+09      -0.348796654       -0.906635048
         1.115e+09      -0.356914841       -0.903479405
          1.12e+09      -0.365009139        -0.90025163
         1.125e+09       -0.37307074       -0.896971234
          1.13e+09       -0.38109347       -0.893654117
         1.135e+09        -0.3890918       -0.890265892
          1.14e+09      -0.397065121       -0.886806673
         1.145e+09      -0.405012824       -0.883276576
          1.15e+09      -0.412941415       -0.879655253
         1.155e+09      -0.420854508       -0.875927531
          1.16e+09      -0.428738734       -0.872128744
         1.165e+09      -0.436593468       -0.868259053
          1.17e+09      -0.444418083       -0.864318623
         1.175e+09      -0.452204862       -0.860329661
          1.18e+09      -0.459949463       -0.856307417
         1.185e+09      -0.467663549       -0.852215504
          1.19e+09      -0.475346505       -0.848054082
         1.195e+09       -0.48299772       -0.843823317
           1.2e+09      -0.490621178       -0.839500972
         1.205e+09      -0.498218032       -0.835073305
          1.21e+09      -0.505779799        -0.83057643
         1.215e+09      -0.513305852        -0.82601056
          1.22e+09      -0.520795564       -0.821375913
         1.225e+09      -0.528248295       -0.816672709
          1.23e+09       -0.53566341       -0.811901176
         1.235e+09      -0.543040305       -0.807061554
          1.24e+09      -0.550378355       -0.802154082
         1.245e+09      -0.557676934       -0.797179007
          1.25e+09      -0.564932386       -0.792161314
         1.255e+09      -0.572143682       -0.787113832
          1.26e+09      -0.579315225       -0.781999785
         1.265e+09      -0.586446402       -0.776819412
          1.27e+09      -0.593536598       -0.771572957
         1.275e+09      -0.600533535       -0.766171742
          1.28e+09        -0.6074103       -0.760577613
         1.285e+09      -0.614239817       -0.754920327
          1.29e+09      -0.621021493       -0.749200221
         1.295e+09      -0.627754738       -0.743417637
           1.3e+09      -0.634496212        -0.73766131
         1.305e+09       -0.64127134        -0.73196533
          1.31e+09      -0.648000616       -0.726205538
         1.315e+09       -0.65468343       -0.720382226
          1.32e+09       -0.66131917       -0.714495694
         1.325e+09      -0.667902974       -0.708521476
          1.33e+09      -0.674431606        -0.70245122
         1.335e+09      -0.680909758       -0.696318812
          1.34e+09       -0.68733682       -0.690124605
         1.345e+09      -0.693712182       -0.683868959
          1.35e+09      -0.700035212       -0.677552224
         1.355e+09      -0.706305297       -0.671174769
          1.36e+09       -0.71252186       -0.664736989
         1.365e+09      -0.718684297       -0.658239267
          1.37e+09      -0.724792005       -0.651681992
         1.375e+09      -0.730851174       -0.645091963
          1.38e+09      -0.736864176       -0.638476374
         1.385e+09       -0.74282228       -0.631802147
          1.39e+09       -0.74872489       -0.625069663
         1.395e+09       -0.75457141       -0.618279311
           1.4e+09       -0.76035141       -0.611406122
         1.405e+09      -0.766060965       -0.604445166
          1.41e+09      -0.771711074       -0.597427991
         1.415e+09      -0.777301151       -0.590355043
          1.42e+09      -0.782830611       -0.583226772
         1.425e+09      -0.788309608       -0.576070225
          1.43e+09      -0.793740688       -0.568890341
         1.435e+09      -0.799111026       -0.561656018
          1.44e+09      -0.804420041       -0.554367701
         1.445e+09      -0.809667156       -0.547025839
          1.45e+09      -0.814758263        -0.53955431
         1.455e+09      -0.819676761       -0.531945355
          1.46e+09      -0.824528082       -0.524288035
         1.465e+09      -0.829311705       -0.516582888
          1.47e+09      -0.834027114       -0.508830461
         1.475e+09       -0.83875726       -0.501080007
          1.48e+09      -0.843511823       -0.493334852
         1.485e+09       -0.84819851       -0.485540865
          1.49e+09      -0.852816773       -0.477698587
         1.495e+09       -0.85736607       -0.469808566
           1.5e+09      -0.861845877       -0.461871377
         1.505e+09      -0.866255659       -0.453887582
          1.51e+09      -0.870594866       -0.445857724
         1.515e+09      -0.874862967       -0.437782375
          1.52e+09      -0.879059436       -0.429662116
         1.525e+09      -0.883202128       -0.421524148
          1.53e+09      -0.887292319       -0.413369308
         1.535e+09      -0.891310877       -0.405170417
          1.54e+09      -0.895257277       -0.396928046
         1.545e+09         -0.899131       -0.388642772
          1.55e+09      -0.902815814       -0.380252145
         1.555e+09      -0.906309026       -0.371760135
          1.56e+09      -0.909725167        -0.36323155
         1.565e+09      -0.913063797       -0.354667051
          1.57e+09       -0.91632448       -0.346067304
         1.575e+09      -0.919603776       -0.337469633
          1.58e+09      -0.922899066       -0.328870851
         1.585e+09      -0.926116432       -0.320235315
          1.59e+09      -0.929255406       -0.311563694
         1.595e+09      -0.932315528       -0.302856661
           1.6e+09      -0.935321967        -0.29413706
         1.605e+09      -0.938273645       -0.285403209
          1.61e+09      -0.941146447       -0.276634734
         1.615e+09      -0.943939911       -0.267832302
          1.62e+09      -0.946653582       -0.258996586
         1.625e+09      -0.949155202       -0.250081029
          1.63e+09      -0.951455197       -0.241094657
         1.635e+09      -0.953671918       -0.232082137
          1.64e+09      -0.955805003       -0.223044216
         1.645e+09        -0.9578541       -0.213981644
          1.65e+09      -0.959925175       -0.204918979
         1.655e+09      -0.962005199       -0.195851156
          1.66e+09      -0.964000982       -0.186757245
         1.665e+09      -0.965912142       -0.177638004
          1.67e+09      -0.967738303       -0.168494198
         1.675e+09      -0.969478622       -0.159328737
          1.68e+09      -0.971132867       -0.150142085
         1.685e+09        -0.9727011       -0.140933219
          1.69e+09      -0.974182968       -0.131702924
         1.695e+09       -0.97557813       -0.122451991
           1.7e+09      -0.976774763       -0.113168498
         1.705e+09      -0.977792491       -0.103858487
          1.71e+09      -0.978722163      -0.0945340311
         1.715e+09      -0.979563518      -0.0851959511
          1.72e+09      -0.980316302      -0.0758450725
         1.725e+09      -0.981129465      -0.0665034048
          1.73e+09      -0.981972444      -0.0571630421
         1.735e+09      -0.982727194      -0.0478068259
          1.74e+09      -0.983393403      -0.0384355688
         1.745e+09      -0.983970765      -0.0290500893
          1.75e+09      -0.984306114      -0.0196378486
         1.755e+09      -0.984434453      -0.0102072318
          1.76e+09      -0.984472329    -0.000770538265
         1.765e+09      -0.984419557      0.00867136714
          1.77e+09       -0.98427596       0.0181176158
         1.775e+09      -0.984158523       0.0275665487
          1.78e+09        -0.9840365       0.0370204971
         1.785e+09      -0.983823092       0.0464799729
          1.79e+09      -0.983518098       0.0559440922
         1.795e+09      -0.983121325       0.0654119671
           1.8e+09      -0.982513906       0.0748754753
         1.805e+09      -0.981729837       0.0843327686
          1.81e+09      -0.980853816       0.0937873185
         1.815e+09      -0.979885741        0.103238226
          1.82e+09      -0.978825518        0.112684587
         1.825e+09      -0.977792861        0.122138168
          1.83e+09      -0.976750214        0.131597152
         1.835e+09      -0.975614665        0.141052651
          1.84e+09      -0.974386099        0.150503743
         1.845e+09       -0.97306441        0.159949504
          1.85e+09        -0.9715295        0.169366531
         1.855e+09      -0.969821913        0.178758398
          1.86e+09      -0.968021778        0.188138415
         1.865e+09      -0.966129083        0.197505658
          1.87e+09      -0.964143822          0.2068592
         1.875e+09      -0.962186787        0.216224306
          1.88e+09      -0.960214225        0.225593688
         1.885e+09      -0.958148187        0.234950267
          1.89e+09      -0.955988651        0.244293092
         1.895e+09      -0.953735604        0.253621214
           1.9e+09      -0.951312378        0.262907943
         1.905e+09      -0.948748838        0.272160867
          1.91e+09      -0.946092877        0.281394775
         1.915e+09      -0.943344527        0.290608736
          1.92e+09      -0.940503826        0.299801816
         1.925e+09      -0.937647532        0.308999093
          1.93e+09      -0.934744194         0.31819036
         1.935e+09       -0.93174766        0.327359311
          1.94e+09      -0.928658001        0.336504978
         1.945e+09      -0.925475298        0.345626393
          1.95e+09      -0.922080176        0.354675541
         1.955e+09      -0.918524301        0.363668415
          1.96e+09      -0.914877253        0.372630656
         1.965e+09      -0.911139203        0.381561318
          1.97e+09       -0.90731033        0.390459453
         1.975e+09      -0.903510065        0.399375377
          1.98e+09      -0.899684628        0.408288333
         1.985e+09       -0.89576728        0.417169334
          1.99e+09      -0.891758187        0.426017405
         1.995e+09      -0.887657526        0.434831575
             2e+09      -0.883347638        0.443553204
         2.005e+09      -0.878884611        0.452205186
          2.01e+09      -0.874332467        0.460817041
         2.015e+09      -0.869691469        0.469387828
          2.02e+09      -0.864961889        0.477916606
         2.025e+09      -0.860261476        0.486463968
          2.03e+09      -0.855532413        0.495002075
         2.035e+09      -0.850713684        0.503498595
          2.04e+09      -0.845805548         0.51195256
         2.045e+09      -0.840808276        0.520363003
          2.05e+09      -0.835608947        0.528657277
         2.055e+09      -0.830266247        0.536867682
          2.06e+09      -0.824837492        0.545028625
         2.065e+09      -0.819323029         0.55313918
          2.07e+09      -0.813723216        0.561198423
         2.075e+09      -0.808038429        0.569205347
          2.08e+09      -0.802269037        0.577159076
         2.085e+09      -0.796415414        0.585058735
          2.09e+09      -0.790477949        0.592903407
         2.095e+09      -0.784457036        0.600692179
           2.1e+09      -0.778462994        0.608505504
         2.105e+09      -0.772435233        0.616301217
          2.11e+09       -0.76632284        0.624041139
         2.115e+09      -0.760126202        0.631724326
          2.12e+09      -0.753845711        0.639349835
         2.125e+09      -0.747376484        0.646827609
          2.13e+09      -0.740779434        0.654203819
         2.135e+09      -0.734102354        0.661516894
          2.14e+09      -0.727345701        0.668765941
         2.145e+09      -0.720509939        0.675950071
          2.15e+09      -0.713597001        0.683066629
         2.155e+09      -0.706606562        0.690115777
          2.16e+09       -0.69953848        0.697097399
         2.165e+09       -0.69239324        0.704010616
          2.17e+09      -0.685171331        0.710854552
         2.175e+09      -0.677974014        0.717726701
          2.18e+09       -0.67074018         0.72457042
         2.185e+09      -0.663428431        0.731344667
          2.19e+09      -0.656039243        0.738048529
         2.195e+09      -0.648573101        0.744681095
           2.2e+09      -0.640906409        0.751084611
         2.205e+09      -0.633119057        0.757349589
          2.21e+09       -0.62526141        0.763536667
         2.215e+09      -0.617334049        0.769645024
          2.22e+09      -0.609337559        0.775673842
         2.225e+09      -0.601298137        0.781676926
          2.23e+09      -0.593198375        0.787620923
         2.235e+09      -0.585028757        0.793484482
          2.24e+09      -0.576789811        0.799266749
         2.245e+09      -0.568482068        0.804966868
          2.25e+09      -0.560196585        0.810696837
         2.255e+09      -0.551873724        0.816385759
          2.26e+09      -0.543480691        0.821991985
         2.265e+09      -0.535017992         0.82751461
          2.27e+09      -0.526486131        0.832952726
         2.275e+09      -0.517801931         0.83818614
          2.28e+09      -0.509023064        0.843290056
         2.285e+09      -0.500179589        0.848304921
          2.29e+09      -0.491272015        0.853229859
         2.295e+09      -0.482300844        0.858063988
           2.3e+09      -0.473266584         0.86280642
         2.305e+09      -0.464169718         0.86745626
          2.31e+09      -0.455010727        0.872012606
         2.315e+09      -0.445790085        0.876474547
          2.32e+09       -0.43650826        0.880841161
         2.325e+09      -0.427170318        0.885109132
          2.33e+09       -0.41777361         0.88927925
         2.335e+09      -0.408317106         0.89335133
          2.34e+09      -0.398801225          0.8973244
         2.345e+09      -0.389226373        0.901197469
          2.35e+09      -0.379660006        0.905103401
         2.355e+09      -0.370053059        0.908949273
          2.36e+09      -0.360385098        0.912693397
         2.365e+09       -0.35065646        0.916334657
          2.37e+09      -0.340867463        0.919871911
         2.375e+09      -0.330970025        0.923093061
          2.38e+09      -0.321004924         0.92614533
         2.385e+09      -0.310987304        0.929088676
          2.39e+09      -0.300917464        0.931921953
         2.395e+09      -0.290795679        0.934643977
           2.4e+09      -0.280604023        0.937326554
         2.405e+09      -0.270352305        0.939915511
          2.41e+09      -0.260045234        0.942389228
         2.415e+09      -0.249682885        0.944746211
          2.42e+09      -0.239265297        0.946984904
         2.425e+09      -0.228793429        0.949104154
          2.43e+09       -0.21826652         0.95110195
         2.435e+09       -0.20768423         0.95297637
          2.44e+09      -0.197046428        0.954725519
         2.445e+09      -0.186352932        0.956347394
          2.45e+09      -0.175605439        0.957838807
         2.455e+09      -0.164802249        0.959198331
          2.46e+09      -0.153942546        0.960423846
         2.465e+09      -0.143025935        0.961512806
          2.47e+09      -0.132051957        0.962462497
         2.475e+09      -0.121107232        0.963350443
          2.48e+09      -0.110126222         0.96411439
         2.485e+09     -0.0990878745        0.964732332
          2.49e+09     -0.0879915705        0.965200863
         2.495e+09     -0.0768366228        0.965516308
           2.5e+09     -0.0655336213        0.965587689
         2.505e+09     -0.0541486563        0.965475395
          2.51e+09     -0.0427004711        0.965193782
         2.515e+09     -0.0311880155        0.964737492
          2.52e+09     -0.0196101845        0.964100683
         2.525e+09    -0.00796908165        0.963277552
          2.53e+09     0.00373907365        0.962260744
         2.535e+09      0.0155161713        0.961042451
          2.54e+09      0.0273633944        0.959614202
         2.545e+09      0.0392818784        0.957966649
          2.55e+09      0.0512726147        0.956089456
         2.555e+09       0.063336529        0.953971152
          2.56e+09       0.075474282        0.951598988
         2.565e+09      0.0876861821        0.948958765
          2.57e+09       0.099972054         0.94603463
         2.575e+09       0.112233726        0.942759196
          2.58e+09       0.124542423        0.939158247
         2.585e+09       0.136912827        0.935219883
          2.59e+09       0.149340154        0.930919758
         2.595e+09        0.16181739        0.926230516
           2.6e+09       0.174443986        0.921157674
         2.605e+09       0.187122161        0.915629415
          2.61e+09       0.199813799        0.909599548
         2.615e+09       0.212492411        0.903024785
          2.62e+09       0.225121987        0.895858092
         2.625e+09       0.237650839        0.888051159
          2.63e+09        0.25001664        0.879552421
         2.635e+09       0.262134238         0.87031447
          2.64e+09       0.273892564        0.860300405
         2.645e+09       0.285151532        0.849494942
          2.65e+09       0.295626545        0.838120453
         2.655e+09       0.305233342        0.826109937
          2.66e+09       0.313809323        0.813607824
         2.665e+09       0.321229355        0.800894689
          2.67e+09       0.327500663        0.788346429
         2.675e+09       0.332937082        0.776131558
          2.68e+09       0.337925105        0.764717436
         2.685e+09       0.343103699         0.75411723
          2.69e+09       0.349090853        0.743907816
         2.695e+09        0.35621835        0.733331528
           2.7e+09       0.364245697         0.72158514
         2.705e+09       0.372793016        0.707883152
          2.71e+09       0.381135425        0.691743502
         2.715e+09       0.388428524        0.672975011
          2.72e+09       0.393815344        0.651630396
         2.725e+09       0.396618794        0.627829466
          2.73e+09       0.395888207        0.602098399
         2.735e+09       0.390835199        0.575109613
          2.74e+09       0.380780632        0.547768699
         2.745e+09       0.365219954        0.521254931
          2.75e+09       0.343875206        0.497230182
         2.755e+09       0.317091628        0.477157625
          2.76e+09       0.285690339        0.462658134
         2.765e+09       0.251089466        0.455151107
          2.77e+09       0.215226368        0.455557738
