!Agilent Technologies,E8364B,US42250173,A.07.50.67
!Agilent E8364B: A.07.50.67
!Date: Friday, October 27, 2017 12:13:15
!Correction: S11(Full 2 Port(1,2)) 
!S21(Full 2 Port(1,2)) 
!S12(Full 2 Port(1,2)) 
!S22(Full 2 Port(1,2)) 
!S2P File: Measurements: S11, S21, S12, S22:
# Hz S  dB   R 50
1000000000 -3.020573e+001 -2.078924e+001 -1.542635e-001 1.657649e+002 -1.503066e-001 1.657723e+002 -3.280484e+001 -1.697715e+002
1009009009.009 -2.995143e+001 -2.346914e+001 -1.542648e-001 1.640125e+002 -1.506412e-001 1.640210e+002 -3.264398e+001 -1.717308e+002
1018018018.018 -2.974968e+001 -2.513457e+001 -1.549928e-001 1.622657e+002 -1.521128e-001 1.622643e+002 -3.242602e+001 -1.736661e+002
1027027027.027 -2.951827e+001 -2.735927e+001 -1.568348e-001 1.605220e+002 -1.527838e-001 1.605166e+002 -3.207977e+001 -1.747458e+002
1036036036.036 -2.929265e+001 -2.919205e+001 -1.591999e-001 1.587678e+002 -1.546590e-001 1.587630e+002 -3.186565e+001 -1.762221e+002
1045045045.045 -2.908930e+001 -3.062834e+001 -1.565698e-001 1.570140e+002 -1.530858e-001 1.570162e+002 -3.162135e+001 -1.786687e+002
1054054054.0541 -2.896304e+001 -3.211605e+001 -1.580292e-001 1.552667e+002 -1.546223e-001 1.552748e+002 -3.140379e+001 -1.799576e+002
1063063063.0631 -2.879926e+001 -3.346909e+001 -1.596730e-001 1.535226e+002 -1.566898e-001 1.535154e+002 -3.121694e+001 1.773648e+002
1072072072.0721 -2.874305e+001 -3.483793e+001 -1.640614e-001 1.517639e+002 -1.562748e-001 1.517682e+002 -3.103177e+001 1.737988e+002
1081081081.0811 -2.871684e+001 -3.573092e+001 -1.622987e-001 1.500124e+002 -1.612923e-001 1.500148e+002 -3.080826e+001 1.735721e+002
1090090090.0901 -2.861565e+001 -3.763858e+001 -1.604651e-001 1.482597e+002 -1.606643e-001 1.482561e+002 -3.070789e+001 1.711321e+002
1099099099.0991 -2.843564e+001 -4.002412e+001 -1.630182e-001 1.465179e+002 -1.622862e-001 1.465087e+002 -3.054651e+001 1.680105e+002
1108108108.1081 -2.839975e+001 -4.157230e+001 -1.645033e-001 1.447611e+002 -1.637136e-001 1.447600e+002 -3.037955e+001 1.675509e+002
1117117117.1171 -2.834387e+001 -4.318851e+001 -1.656265e-001 1.430086e+002 -1.639473e-001 1.430099e+002 -3.021692e+001 1.657034e+002
1126126126.1261 -2.820448e+001 -4.522021e+001 -1.655445e-001 1.412568e+002 -1.647570e-001 1.412638e+002 -3.010773e+001 1.629282e+002
1135135135.1351 -2.805451e+001 -4.704772e+001 -1.661755e-001 1.395125e+002 -1.647248e-001 1.395115e+002 -2.998287e+001 1.615904e+002
1144144144.1441 -2.793801e+001 -4.870155e+001 -1.672788e-001 1.377643e+002 -1.667732e-001 1.377597e+002 -2.976799e+001 1.603370e+002
1153153153.1532 -2.782084e+001 -5.035669e+001 -1.688262e-001 1.360154e+002 -1.659579e-001 1.360255e+002 -2.966241e+001 1.588174e+002
1162162162.1622 -2.765781e+001 -5.249207e+001 -1.701892e-001 1.342619e+002 -1.664765e-001 1.342678e+002 -2.947897e+001 1.568209e+002
1171171171.1712 -2.753509e+001 -5.428002e+001 -1.725071e-001 1.325259e+002 -1.700377e-001 1.325118e+002 -2.937041e+001 1.553848e+002
1180180180.1802 -2.746289e+001 -5.553938e+001 -1.733173e-001 1.307670e+002 -1.709356e-001 1.307724e+002 -2.924257e+001 1.533706e+002
1189189189.1892 -2.740400e+001 -5.712605e+001 -1.720932e-001 1.290184e+002 -1.703180e-001 1.290100e+002 -2.910321e+001 1.506871e+002
1198198198.1982 -2.737450e+001 -5.872354e+001 -1.711903e-001 1.272674e+002 -1.725223e-001 1.272592e+002 -2.902216e+001 1.487369e+002
1207207207.2072 -2.731192e+001 -6.033976e+001 -1.754847e-001 1.255083e+002 -1.723751e-001 1.255111e+002 -2.897939e+001 1.460165e+002
1216216216.2162 -2.729542e+001 -6.234311e+001 -1.736949e-001 1.237560e+002 -1.705856e-001 1.237538e+002 -2.887790e+001 1.443468e+002
1225225225.2252 -2.720556e+001 -6.423266e+001 -1.775194e-001 1.220102e+002 -1.739284e-001 1.220000e+002 -2.876712e+001 1.424845e+002
1234234234.2342 -2.711272e+001 -6.609246e+001 -1.776749e-001 1.202533e+002 -1.745161e-001 1.202503e+002 -2.866524e+001 1.409583e+002
1243243243.2432 -2.704675e+001 -6.801668e+001 -1.767876e-001 1.184975e+002 -1.765205e-001 1.184911e+002 -2.856540e+001 1.389155e+002
1252252252.2523 -2.695574e+001 -7.017039e+001 -1.802013e-001 1.167495e+002 -1.767073e-001 1.167456e+002 -2.842702e+001 1.368844e+002
1261261261.2613 -2.689953e+001 -7.178712e+001 -1.788426e-001 1.149949e+002 -1.782790e-001 1.149902e+002 -2.832215e+001 1.355749e+002
1270270270.2703 -2.678458e+001 -7.389301e+001 -1.811506e-001 1.132359e+002 -1.777382e-001 1.132459e+002 -2.821653e+001 1.334817e+002
1279279279.2793 -2.670072e+001 -7.584478e+001 -1.807163e-001 1.114928e+002 -1.806793e-001 1.114867e+002 -2.807679e+001 1.320532e+002
1288288288.2883 -2.665752e+001 -7.723277e+001 -1.814566e-001 1.097297e+002 -1.799234e-001 1.097331e+002 -2.799576e+001 1.301218e+002
1297297297.2973 -2.659321e+001 -7.932172e+001 -1.815543e-001 1.079885e+002 -1.822232e-001 1.079752e+002 -2.787693e+001 1.287416e+002
1306306306.3063 -2.656321e+001 -8.109789e+001 -1.811337e-001 1.062291e+002 -1.834818e-001 1.062231e+002 -2.780581e+001 1.264879e+002
1315315315.3153 -2.649240e+001 -8.246813e+001 -1.895029e-001 1.044740e+002 -1.846922e-001 1.044654e+002 -2.776262e+001 1.244529e+002
1324324324.3243 -2.651675e+001 -8.438516e+001 -1.890814e-001 1.027172e+002 -1.833719e-001 1.027207e+002 -2.772539e+001 1.228390e+002
1333333333.3333 -2.649316e+001 -8.590424e+001 -1.868896e-001 1.009580e+002 -1.874216e-001 1.009580e+002 -2.771165e+001 1.201533e+002
1342342342.3423 -2.645800e+001 -8.794696e+001 -1.879206e-001 9.919524e+001 -1.869434e-001 9.920311e+001 -2.764491e+001 1.184690e+002
1351351351.3514 -2.642457e+001 -8.957030e+001 -1.887880e-001 9.743385e+001 -1.880367e-001 9.744161e+001 -2.762392e+001 1.162847e+002
1360360360.3604 -2.639831e+001 -9.161012e+001 -1.913271e-001 9.567603e+001 -1.887495e-001 9.566505e+001 -2.754515e+001 1.148727e+002
1369369369.3694 -2.636660e+001 -9.390623e+001 -1.914370e-001 9.391894e+001 -1.902882e-001 9.391064e+001 -2.746667e+001 1.132758e+002
1378378378.3784 -2.625906e+001 -9.570631e+001 -1.926719e-001 9.214364e+001 -1.919913e-001 9.214046e+001 -2.731216e+001 1.119934e+002
1387387387.3874 -2.622793e+001 -9.779868e+001 -1.956426e-001 9.036835e+001 -1.935317e-001 9.037148e+001 -2.722015e+001 1.099025e+002
1396396396.3964 -2.612363e+001 -1.003481e+002 -1.971068e-001 8.859585e+001 -1.937889e-001 8.859380e+001 -2.705251e+001 1.081956e+002
1405405405.4054 -2.603480e+001 -1.022841e+002 -1.992591e-001 8.680864e+001 -1.959460e-001 8.681475e+001 -2.685518e+001 1.068845e+002
1414414414.4144 -2.590736e+001 -1.041793e+002 -2.031873e-001 8.502492e+001 -2.001039e-001 8.502523e+001 -2.676369e+001 1.039592e+002
1423423423.4234 -2.578764e+001 -1.076237e+002 -2.053157e-001 8.321277e+001 -2.034837e-001 8.321641e+001 -2.649888e+001 1.023352e+002
1432432432.4324 -2.561453e+001 -1.102970e+002 -2.129649e-001 8.138889e+001 -2.089329e-001 8.138171e+001 -2.622196e+001 9.984967e+001
1441441441.4414 -2.535801e+001 -1.143443e+002 -2.240634e-001 7.949326e+001 -2.221227e-001 7.948930e+001 -2.582941e+001 9.717417e+001
1450450450.4505 -2.492853e+001 -1.216398e+002 -2.616843e-001 7.747297e+001 -2.591788e-001 7.747530e+001 -2.494293e+001 9.278811e+001
1459459459.4595 -2.560534e+001 -1.478074e+002 -4.719390e-001 7.593913e+001 -4.698611e-001 7.593125e+001 -2.390154e+001 6.917665e+001
1468468468.4685 -2.998414e+001 -1.168248e+002 -2.705919e-001 7.543164e+001 -2.724093e-001 7.544167e+001 -2.939358e+001 7.268932e+001
1477477477.4775 -2.737587e+001 -1.196589e+002 -2.423719e-001 7.305197e+001 -2.440464e-001 7.306084e+001 -2.767971e+001 8.352016e+001
1486486486.4865 -2.973321e+001 -1.351282e+002 -3.412573e-001 7.176654e+001 -3.406145e-001 7.176161e+001 -2.797615e+001 6.311752e+001
1495495495.4955 -2.846772e+001 -1.199124e+002 -2.383744e-001 6.987360e+001 -2.390281e-001 6.986471e+001 -2.893048e+001 7.902573e+001
1504504504.5045 -2.885286e+001 -1.239581e+002 -2.559977e-001 6.815846e+001 -2.539831e-001 6.816771e+001 -2.897034e+001 7.438171e+001
1513513513.5135 -2.808059e+001 -1.212868e+002 -2.184782e-001 6.628824e+001 -2.148346e-001 6.628456e+001 -2.881682e+001 8.027719e+001
1522522522.5225 -2.747734e+001 -1.251353e+002 -2.158955e-001 6.434857e+001 -2.144812e-001 6.434660e+001 -2.814888e+001 7.972808e+001
1531531531.5315 -2.703541e+001 -1.310608e+002 -2.333411e-001 6.239808e+001 -2.338444e-001 6.240228e+001 -2.735781e+001 7.653705e+001
1540540540.5405 -2.688489e+001 -1.442261e+002 -3.092972e-001 6.047838e+001 -3.072384e-001 6.048395e+001 -2.636168e+001 6.579777e+001
1549549549.5495 -3.143877e+001 -1.510865e+002 -3.443806e-001 5.979339e+001 -3.464373e-001 5.979936e+001 -2.908155e+001 4.571650e+001
1558558558.5586 -3.063836e+001 -1.297699e+002 -2.407598e-001 5.801810e+001 -2.348539e-001 5.802258e+001 -3.102704e+001 6.182267e+001
1567567567.5676 -2.962084e+001 -1.286711e+002 -2.171596e-001 5.608200e+001 -2.118328e-001 5.607592e+001 -3.060303e+001 6.700081e+001
1576576576.5766 -2.925444e+001 -1.314597e+002 -2.095885e-001 5.421174e+001 -2.065898e-001 5.421219e+001 -3.035002e+001 6.767715e+001
1585585585.5856 -2.915591e+001 -1.331535e+002 -2.072579e-001 5.239676e+001 -2.041664e-001 5.239447e+001 -3.022011e+001 6.748192e+001
1594594594.5946 -2.914033e+001 -1.360134e+002 -2.062071e-001 5.058558e+001 -2.035407e-001 5.059401e+001 -3.022244e+001 6.663719e+001
1603603603.6036 -2.917004e+001 -1.380995e+002 -2.038209e-001 4.879902e+001 -2.035434e-001 4.880576e+001 -3.014799e+001 6.638187e+001
1612612612.6126 -2.916891e+001 -1.407604e+002 -2.046567e-001 4.702137e+001 -2.027807e-001 4.701672e+001 -3.020191e+001 6.508707e+001
1621621621.6216 -2.926230e+001 -1.439641e+002 -2.052919e-001 4.524728e+001 -2.047884e-001 4.523982e+001 -3.010169e+001 6.505829e+001
1630630630.6306 -2.935942e+001 -1.460816e+002 -2.059330e-001 4.347012e+001 -2.039081e-001 4.346049e+001 -3.020057e+001 6.389100e+001
1639639639.6396 -2.940227e+001 -1.481113e+002 -2.088462e-001 4.170382e+001 -2.040289e-001 4.169178e+001 -3.019304e+001 6.302588e+001
1648648648.6486 -2.949804e+001 -1.512596e+002 -2.094484e-001 3.993766e+001 -2.042259e-001 3.992195e+001 -3.024104e+001 6.155323e+001
1657657657.6577 -2.956732e+001 -1.536023e+002 -2.088200e-001 3.816510e+001 -2.042948e-001 3.816394e+001 -3.033798e+001 5.999608e+001
1666666666.6667 -2.967907e+001 -1.563754e+002 -2.097648e-001 3.640807e+001 -2.074784e-001 3.640431e+001 -3.040177e+001 5.879133e+001
1675675675.6757 -2.976824e+001 -1.579482e+002 -2.104568e-001 3.464254e+001 -2.056959e-001 3.463506e+001 -3.061670e+001 5.677581e+001
1684684684.6847 -2.989889e+001 -1.613837e+002 -2.112833e-001 3.288465e+001 -2.051935e-001 3.287228e+001 -3.085338e+001 5.528619e+001
1693693693.6937 -3.010355e+001 -1.636013e+002 -2.114015e-001 3.112099e+001 -2.062776e-001 3.111848e+001 -3.100644e+001 5.439711e+001
1702702702.7027 -3.022666e+001 -1.657562e+002 -2.121700e-001 2.935856e+001 -2.105969e-001 2.935077e+001 -3.139642e+001 5.281423e+001
1711711711.7117 -3.051220e+001 -1.684656e+002 -2.132083e-001 2.759882e+001 -2.097191e-001 2.759781e+001 -3.154923e+001 5.226661e+001
1720720720.7207 -3.071371e+001 -1.710497e+002 -2.115086e-001 2.583824e+001 -2.095619e-001 2.583090e+001 -3.178229e+001 5.225070e+001
1729729729.7297 -3.089378e+001 -1.737596e+002 -2.129080e-001 2.407889e+001 -2.102420e-001 2.407005e+001 -3.211598e+001 5.148286e+001
1738738738.7387 -3.115392e+001 -1.775147e+002 -2.134966e-001 2.232328e+001 -2.128888e-001 2.231895e+001 -3.208721e+001 5.233008e+001
1747747747.7477 -3.131720e+001 1.791557e+002 -2.149981e-001 2.055438e+001 -2.109327e-001 2.055062e+001 -3.221926e+001 5.216370e+001
1756756756.7568 -3.153818e+001 1.753725e+002 -2.142927e-001 1.879721e+001 -2.144475e-001 1.879185e+001 -3.245389e+001 5.174597e+001
1765765765.7658 -3.166381e+001 1.719181e+002 -2.144474e-001 1.704632e+001 -2.130383e-001 1.702550e+001 -3.254716e+001 5.158123e+001
1774774774.7748 -3.184427e+001 1.681739e+002 -2.184622e-001 1.527575e+001 -2.164574e-001 1.528371e+001 -3.267348e+001 5.134385e+001
1783783783.7838 -3.198938e+001 1.643832e+002 -2.169418e-001 1.352886e+001 -2.131178e-001 1.350870e+001 -3.283261e+001 5.097787e+001
1792792792.7928 -3.210850e+001 1.611412e+002 -2.169721e-001 1.176470e+001 -2.142531e-001 1.176464e+001 -3.329833e+001 5.028524e+001
1801801801.8018 -3.235648e+001 1.578108e+002 -2.186780e-001 1.000570e+001 -2.164334e-001 1.000062e+001 -3.356406e+001 5.057545e+001
1810810810.8108 -3.263076e+001 1.539301e+002 -2.181053e-001 8.244675e+000 -2.151871e-001 8.248282e+000 -3.386851e+001 5.154566e+001
1819819819.8198 -3.281671e+001 1.505904e+002 -2.207637e-001 6.482360e+000 -2.153529e-001 6.484591e+000 -3.415836e+001 5.274308e+001
1828828828.8288 -3.307924e+001 1.457690e+002 -2.186556e-001 4.719280e+000 -2.171461e-001 4.717352e+000 -3.440776e+001 5.379856e+001
1837837837.8378 -3.332777e+001 1.402038e+002 -2.232636e-001 2.961631e+000 -2.187360e-001 2.961856e+000 -3.464796e+001 5.631340e+001
1846846846.8468 -3.356528e+001 1.352649e+002 -2.222128e-001 1.211889e+000 -2.176984e-001 1.191828e+000 -3.449505e+001 5.819161e+001
1855855855.8559 -3.376122e+001 1.305862e+002 -2.229812e-001 -5.597614e-001 -2.206066e-001 -5.647128e-001 -3.462192e+001 6.034328e+001
1864864864.8649 -3.393311e+001 1.239388e+002 -2.213502e-001 -2.317774e+000 -2.210745e-001 -2.316710e+000 -3.446670e+001 6.243862e+001
1873873873.8739 -3.386010e+001 1.186660e+002 -2.223641e-001 -4.084040e+000 -2.180014e-001 -4.094790e+000 -3.438492e+001 6.382991e+001
1882882882.8829 -3.377975e+001 1.128889e+002 -2.238773e-001 -5.851871e+000 -2.211404e-001 -5.845094e+000 -3.425120e+001 6.519798e+001
1891891891.8919 -3.360787e+001 1.073268e+002 -2.231661e-001 -7.612466e+000 -2.208398e-001 -7.616256e+000 -3.428363e+001 6.604604e+001
1900900900.9009 -3.349977e+001 1.026182e+002 -2.219767e-001 -9.367344e+000 -2.225327e-001 -9.372684e+000 -3.424937e+001 6.652638e+001
1909909909.9099 -3.331314e+001 9.739634e+001 -2.247772e-001 -1.112272e+001 -2.214089e-001 -1.112448e+001 -3.435633e+001 6.841203e+001
1918918918.9189 -3.320917e+001 9.244897e+001 -2.253162e-001 -1.288244e+001 -2.213872e-001 -1.289191e+001 -3.422321e+001 6.966841e+001
1927927927.9279 -3.314206e+001 8.806009e+001 -2.246173e-001 -1.464558e+001 -2.227616e-001 -1.465393e+001 -3.426094e+001 7.174790e+001
1936936936.9369 -3.314856e+001 8.290936e+001 -2.264144e-001 -1.639879e+001 -2.238754e-001 -1.640062e+001 -3.421945e+001 7.393473e+001
1945945945.9459 -3.296350e+001 7.699577e+001 -2.248710e-001 -1.815026e+001 -2.273954e-001 -1.816345e+001 -3.387642e+001 7.573932e+001
1954954954.955 -3.272002e+001 7.182715e+001 -2.268827e-001 -1.992225e+001 -2.255825e-001 -1.992302e+001 -3.348517e+001 7.714323e+001
1963963963.964 -3.244984e+001 6.620232e+001 -2.276360e-001 -2.167623e+001 -2.252633e-001 -2.168505e+001 -3.303163e+001 7.860663e+001
1972972972.973 -3.214999e+001 6.086029e+001 -2.241336e-001 -2.343998e+001 -2.264647e-001 -2.345279e+001 -3.256068e+001 7.914394e+001
1981981981.982 -3.180686e+001 5.642156e+001 -2.293219e-001 -2.519994e+001 -2.275380e-001 -2.520929e+001 -3.226614e+001 8.011437e+001
1990990990.991 -3.138076e+001 5.176520e+001 -2.285698e-001 -2.696425e+001 -2.316376e-001 -2.697753e+001 -3.183031e+001 7.973598e+001
2000000000 -3.102260e+001 4.837668e+001 -2.292141e-001 -2.873359e+001 -2.279501e-001 -2.873283e+001 -3.158652e+001 7.977174e+001
2009009009.009 -3.054123e+001 4.522747e+001 -2.306413e-001 -3.050878e+001 -2.267127e-001 -3.050771e+001 -3.135013e+001 7.899080e+001
2018018018.018 -3.024004e+001 4.185114e+001 -2.309271e-001 -3.226070e+001 -2.289407e-001 -3.226997e+001 -3.116831e+001 7.880945e+001
2027027027.027 -2.993841e+001 3.904129e+001 -2.303871e-001 -3.402665e+001 -2.287107e-001 -3.403391e+001 -3.093524e+001 7.860731e+001
2036036036.036 -2.967338e+001 3.636794e+001 -2.330163e-001 -3.579220e+001 -2.328977e-001 -3.579122e+001 -3.070202e+001 7.804766e+001
2045045045.045 -2.947245e+001 3.266838e+001 -2.346309e-001 -3.755133e+001 -2.296621e-001 -3.755256e+001 -3.046225e+001 7.921034e+001
2054054054.0541 -2.927559e+001 2.967681e+001 -2.330386e-001 -3.932320e+001 -2.318873e-001 -3.932712e+001 -3.018883e+001 7.885580e+001
2063063063.0631 -2.903377e+001 2.632184e+001 -2.322414e-001 -4.108492e+001 -2.321164e-001 -4.108911e+001 -2.983411e+001 7.858274e+001
2072072072.0721 -2.873363e+001 2.253386e+001 -2.332699e-001 -4.284508e+001 -2.326421e-001 -4.285305e+001 -2.947491e+001 7.849110e+001
2081081081.0811 -2.839708e+001 1.903254e+001 -2.326453e-001 -4.461164e+001 -2.329962e-001 -4.461060e+001 -2.908073e+001 7.756792e+001
2090090090.0901 -2.803912e+001 1.591900e+001 -2.298630e-001 -4.638710e+001 -2.330649e-001 -4.637506e+001 -2.869529e+001 7.668143e+001
2099099099.0991 -2.764547e+001 1.291420e+001 -2.353089e-001 -4.813392e+001 -2.325927e-001 -4.815150e+001 -2.833685e+001 7.546901e+001
2108108108.1081 -2.730150e+001 1.014804e+001 -2.346020e-001 -4.990321e+001 -2.352812e-001 -4.992007e+001 -2.805930e+001 7.381940e+001
2117117117.1171 -2.698137e+001 7.601448e+000 -2.353761e-001 -5.166647e+001 -2.338486e-001 -5.168307e+001 -2.780893e+001 7.213237e+001
2126126126.1261 -2.666394e+001 5.711629e+000 -2.350447e-001 -5.344051e+001 -2.364248e-001 -5.343786e+001 -2.757878e+001 7.093649e+001
2135135135.1351 -2.642750e+001 3.807921e+000 -2.389119e-001 -5.520510e+001 -2.383260e-001 -5.520845e+001 -2.741004e+001 6.948050e+001
2144144144.1441 -2.616244e+001 1.823636e+000 -2.412016e-001 -5.697665e+001 -2.354383e-001 -5.697716e+001 -2.725653e+001 6.794818e+001
2153153153.1532 -2.595050e+001 -3.298205e-002 -2.384690e-001 -5.873380e+001 -2.366883e-001 -5.874027e+001 -2.711292e+001 6.648707e+001
2162162162.1622 -2.585988e+001 -1.804875e+000 -2.415382e-001 -6.051439e+001 -2.394653e-001 -6.051096e+001 -2.691862e+001 6.622188e+001
2171171171.1712 -2.567733e+001 -3.949402e+000 -2.411314e-001 -6.228453e+001 -2.409952e-001 -6.228568e+001 -2.673347e+001 6.504160e+001
2180180180.1802 -2.550638e+001 -6.535301e+000 -2.438707e-001 -6.405043e+001 -2.402107e-001 -6.404998e+001 -2.646777e+001 6.404197e+001
2189189189.1892 -2.534872e+001 -9.093583e+000 -2.428144e-001 -6.581534e+001 -2.403163e-001 -6.582488e+001 -2.625595e+001 6.300778e+001
2198198198.1982 -2.516309e+001 -1.148912e+001 -2.431484e-001 -6.757272e+001 -2.431093e-001 -6.758382e+001 -2.599866e+001 6.151164e+001
2207207207.2072 -2.490466e+001 -1.400586e+001 -2.459285e-001 -6.934415e+001 -2.444776e-001 -6.935427e+001 -2.573733e+001 6.022683e+001
2216216216.2162 -2.466948e+001 -1.628638e+001 -2.454702e-001 -7.111835e+001 -2.468273e-001 -7.111481e+001 -2.547455e+001 5.802976e+001
2225225225.2252 -2.440960e+001 -1.829353e+001 -2.472192e-001 -7.287347e+001 -2.474706e-001 -7.287435e+001 -2.530021e+001 5.615329e+001
2234234234.2342 -2.419262e+001 -2.031161e+001 -2.479346e-001 -7.464436e+001 -2.480535e-001 -7.464661e+001 -2.508754e+001 5.462717e+001
2243243243.2432 -2.398507e+001 -2.190160e+001 -2.497012e-001 -7.640253e+001 -2.502319e-001 -7.642405e+001 -2.497061e+001 5.267069e+001
2252252252.2523 -2.377361e+001 -2.366899e+001 -2.505890e-001 -7.817239e+001 -2.510799e-001 -7.818362e+001 -2.483885e+001 5.093554e+001
2261261261.2613 -2.364153e+001 -2.535974e+001 -2.526082e-001 -7.994167e+001 -2.517513e-001 -7.994478e+001 -2.472918e+001 4.907687e+001
2270270270.2703 -2.352288e+001 -2.686565e+001 -2.528234e-001 -8.171664e+001 -2.515190e-001 -8.170858e+001 -2.461121e+001 4.740855e+001
2279279279.2793 -2.341263e+001 -2.865373e+001 -2.523546e-001 -8.348275e+001 -2.527532e-001 -8.348956e+001 -2.446922e+001 4.621779e+001
2288288288.2883 -2.327762e+001 -3.054813e+001 -2.525786e-001 -8.525461e+001 -2.565668e-001 -8.525666e+001 -2.430880e+001 4.486248e+001
2297297297.2973 -2.320570e+001 -3.235823e+001 -2.577825e-001 -8.702779e+001 -2.559896e-001 -8.702869e+001 -2.418207e+001 4.345131e+001
2306306306.3063 -2.311051e+001 -3.456609e+001 -2.580419e-001 -8.878357e+001 -2.566026e-001 -8.877988e+001 -2.402455e+001 4.164365e+001
